(1725115708.946630) vcan0 615##46AE49268EDBF5B0C6AE49268EDBF5B0C6AE49268EDBF5B0C
(1725115709.181474) vcan0 64D#30FF45
(1725115709.381795) vcan0 098##41526BC683D148B111526BC683D148B11
(1725115709.583178) vcan0 0742D91A##552066A10C3E88F7C52066A10C3E88F7C52066A10C3E88F7C52066A10C3E88F7C52066A10C3E88F7C52066A10C3E88F7C
(1725115709.783814) vcan0 0E8C909E##5C938D560B70FBE11C938D560B70FBE11C938D560B70FBE11C938D560B70FBE11C938D560B70FBE11C938D560B70FBE11C938D560B70FBE11C938D560B70FBE11
(1725115709.988575) vcan0 1FC5EB63#R
(1725115710.199851) vcan0 575#2867437ADF59AC47
(1725115710.401003) vcan0 1CE4B2B0##62ED24B2FE1B12A6D2ED24B2FE1B12A6D2ED24B2FE1B12A6D2ED24B2FE1B12A6D
(1725115710.601941) vcan0 145BC790##45DE82634A5ED171D5DE82634
(1725115710.802413) vcan0 12F04B54##5A5AF314DA7515A23A5AF314DA7515A23A5AF314DA7515A23A5AF314DA7515A23A5AF314DA7515A23A5AF314DA7515A23A5AF314DA7515A23A5AF314DA7515A23
(1725115711.003401) vcan0 07C##4316E846046
(1725115711.206292) vcan0 74E#R8
(1725115711.429861) vcan0 428##411F3552451B34A0511F3552451B34A05
(1725115711.663152) vcan0 0D0B9D3C#36
(1725115711.863320) vcan0 5E9##45C3A1742479E61305C3A1742479E61305C3A1742
(1725115712.063811) vcan0 065F7113#60EB2572B8209113
(1725115712.263990) vcan0 2E3##4871D937814
(1725115712.464363) vcan0 1C380F84##6244F9A
(1725115712.664522) vcan0 1B9657F7##5415D9629084BEC5F415D9629
(1725115712.865517) vcan0 04B##6FBB3937D
(1725115713.066026) vcan0 0CEDCBDE##7AB8E023A3A06050FAB8E023A3A06050FAB8E023A
(1725115713.266217) vcan0 34C##44DE1232BAC9EF3194DE1232BAC9EF3194DE1232BAC9EF3194DE1232BAC9EF319
(1725115713.466909) vcan0 11D01C90#3AA9B906173A630A
(1725115713.667161) vcan0 3B5#0783FA31DA322063
(1725115713.867316) vcan0 71E#R1
(1725115714.068310) vcan0 032B80BF#R8
(1725115714.269243) vcan0 5CD#97F10F6978A4EC6E
(1725115714.469378) vcan0 149##41F7E1612
(1725115714.672674) vcan0 625#0030B23D5FBFC5
(1725115714.872844) vcan0 2A4##7DA6AD43EAB
(1725115715.073872) vcan0 108202F6##7C0602213BB354938C0602213
(1725115715.274030) vcan0 11C53699#D4751970B6F45F5D
(1725115715.474843) vcan0 601#CDEBE0
(1725115715.679592) vcan0 0692F29F##6BF06
(1725115715.879816) vcan0 089EFD30#R4
(1725115716.080499) vcan0 1DBFBBDE##458E9C606
(1725115716.280883) vcan0 1B32BF47##7482212050720550E482212050720550E482212050720550E482212050720550E482212050720550E482212050720550E
(1725115716.481831) vcan0 1EC1A372#
(1725115716.683400) vcan0 1D080118##5DA55C40FE5ECE8
(1725115716.929415) vcan0 4D6#C20F0877
(1725115717.204817) vcan0 0EB8C33B##427D7DA79DB
(1725115717.432425) vcan0 0F561D6B#C9D5781CC3061D76
(1725115717.681668) vcan0 348##4206AA91B918D6D16206AA91B918D6D16206AA91B
(1725115717.896985) vcan0 18A##4B33CBF
(1725115718.100411) vcan0 1D39880A#91719E14E4
(1725115718.304185) vcan0 071##6EFAC493333A80327EFAC493333A80327
(1725115718.510091) vcan0 532#15F76F585AD44933
(1725115718.710766) vcan0 104C2D0B#02E3FA5BD4
(1725115718.973863) vcan0 374#93BE0C0A958D3766
(1725115719.290849) vcan0 4A6##7B12CBD2959E17029B12CBD2959E17029B12CBD2959E17029B12CBD2959E17029B12CBD2959E17029B12CBD2959E17029B12CBD2959E17029B12CBD2959E17029
(1725115719.509525) vcan0 6FA#121702
(1725115719.718284) vcan0 0DCFE47C##5022AA1316B911941022AA1316B911941022AA1316B911941
(1725115719.942136) vcan0 18861852##79D94210F670FF6709D94210F670FF6709D94210F670FF6709D94210F670FF6709D94210F670FF6709D94210F670FF670
(1725115720.222170) vcan0 5E6#R2
(1725115720.437582) vcan0 092F4D45##564AD272CD90B3C7364AD272CD90B3C7364AD272CD90B3C7364AD272CD90B3C73
(1725115720.653584) vcan0 112##411491E2DC3D5726A11491E2DC3D5726A11491E2DC3D5726A11491E2DC3D5726A11491E2DC3D5726A11491E2DC3D5726A11491E2DC3D5726A11491E2DC3D5726A
(1725115720.856821) vcan0 79E#R8
(1725115721.064554) vcan0 00B14282#45B6014D846C5212
(1725115721.269468) vcan0 775#R6
(1725115721.470026) vcan0 62E##7B0D0105DEB52F445B0D0105D
(1725115721.686817) vcan0 7F7##4
(1725115721.897291) vcan0 09426932#885C4D1F43B26016
(1725115722.097445) vcan0 660#EE
(1725115722.305997) vcan0 1542BE37#BE43E7367C744422
(1725115722.512104) vcan0 056##479
(1725115722.719700) vcan0 1B7#FD99D92C67827049
(1725115722.919962) vcan0 1097ACDF#D5DC57361E24FC13
(1725115723.120978) vcan0 0DF##6
(1725115723.321363) vcan0 258#75713B40467BC860
(1725115723.522311) vcan0 0B153A07##481E9CB03C57DFC2181E9CB03C57DFC2181E9CB03C57DFC2181E9CB03C57DFC21
(1725115723.722582) vcan0 224##6EB01FB609D9F157AEB01FB609D9F157AEB01FB60
(1725115723.922794) vcan0 1F2EC9EF##561A30833
(1725115724.123078) vcan0 1A3CE006##61A666E04DBBC94701A666E04DBBC94701A666E04
(1725115724.323251) vcan0 5D5##63AC2DA0DFD6BF4133AC2DA0DFD6BF413
(1725115724.523531) vcan0 1CE##4EAFE017F44
(1725115724.724139) vcan0 44D#R8
(1725115724.925499) vcan0 113#2BF9D1
(1725115725.126060) vcan0 2D2#E418437D3356A339
(1725115725.326518) vcan0 0D28EC9F##6A6011032BA529731A6011032
(1725115725.527015) vcan0 690#CF38C12DCBF88650
(1725115725.727827) vcan0 3F1#E1D2DC4FDB62146E
(1725115725.928041) vcan0 0ABFAC7D#R8
(1725115726.128438) vcan0 0F484638##5EAEC676D633F1A24EAEC676D633F1A24
(1725115726.329066) vcan0 0435B47A#98D08B185E
(1725115726.533481) vcan0 173#A17E385819C30B00
(1725115726.734357) vcan0 1B6#R8
(1725115726.935265) vcan0 17C989D3#0EED3F05B45C
(1725115727.135834) vcan0 18F65AEC#7990
(1725115727.336939) vcan0 15C15571#7349FF525B422963
(1725115727.540677) vcan0 51D#E6ED8E57B55D
(1725115727.741616) vcan0 64E#327E7917F0B41F14
(1725115727.941817) vcan0 17B28AEA#EBDB6E6B31A0
(1725115728.142212) vcan0 1EADCE60##6A1DFBC14
(1725115728.343118) vcan0 1C5250F2#R8
(1725115728.543985) vcan0 19A358B4##7BC481B5F27A2A24CBC481B5F27A2A24CBC481B5F27A2A24C
(1725115728.744613) vcan0 46D#R4
(1725115728.945111) vcan0 0A853442#R1
(1725115729.146150) vcan0 1AD78E63#374458044E6A4626
(1725115729.348905) vcan0 1F941562#9507EE6403F55054
(1725115729.585726) vcan0 64E##7790AC60539
(1725115729.849314) vcan0 1C2196E8#3D5E2C29A5DF3C3B
(1725115730.092030) vcan0 037AD775#5948
(1725115730.299000) vcan0 0828D553#06BF214A7481
(1725115730.534071) vcan0 1DACDC98##69A6B5D6BCF2005
(1725115730.756009) vcan0 12B##5D5B2
(1725115730.962705) vcan0 093DA6F3#2B718D466CB1030F
(1725115731.163239) vcan0 1894988C#3674BF6E
(1725115731.363431) vcan0 1EAC8D4B#R8
(1725115731.566062) vcan0 270##48891115A77616C62
(1725115731.787526) vcan0 7C3#443CF3545E2B1B77
(1725115731.987864) vcan0 66A##71095B7233F69B6701095B723
(1725115732.199647) vcan0 046##65AA4
(1725115732.400269) vcan0 1A3##7F2091D74D9159C15F2091D74D9159C15F2091D74D9159C15F2091D74D9159C15
(1725115732.601223) vcan0 1EC##5058FC03FF7
(1725115732.821970) vcan0 4C8##6C223315750363604
(1725115733.022092) vcan0 1703502E##7EEBFE362
(1725115733.232559) vcan0 6CC##4FB95F23CDDB3B968FB95F23CDDB3B968FB95F23CDDB3B968
(1725115733.433636) vcan0 168C5B46##64DBCFB
(1725115733.669568) vcan0 5EB#916F4E
(1725115733.870605) vcan0 057#R8
(1725115734.070998) vcan0 145DD30B#29580127CD
(1725115734.271185) vcan0 09CBDA08#8990E233F699AF0C
(1725115734.471329) vcan0 1FB##74B16DA
(1725115734.677194) vcan0 266#C3E0C65CB47EDD7E
(1725115734.894497) vcan0 1F518657#R8
(1725115735.094651) vcan0 07A1FB3C#R8
(1725115735.295573) vcan0 609#R8
(1725115735.495953) vcan0 09ADE437##55366D60CC074903D5366D60CC074903D5366D60C
(1725115735.708320) vcan0 1B5F39C1#F4FA42070C503966
(1725115735.972749) vcan0 01AE6794##4F011D7
(1725115736.173064) vcan0 1F3BB4CD##5C68DC96BEDF87038C68DC96BEDF87038C68DC96BEDF87038C68DC96BEDF87038C68DC96BEDF87038C68DC96BEDF87038
(1725115736.375746) vcan0 244##5D6EAD9088B501C10D6EAD908
(1725115736.586716) vcan0 0EE0D072##531721F09
(1725115736.787808) vcan0 13639188##5023D2810DBF73960023D2810DBF73960023D2810
(1725115736.988355) vcan0 05B97F33##6E7996074287AFC4CE7996074287AFC4CE7996074287AFC4C
(1725115737.189279) vcan0 04C7089A#1C94ED7F8A1A9E63
(1725115737.406709) vcan0 543#C2F8E64A09B3AF
(1725115737.607646) vcan0 559#6EBC5D1B2FA8270C
(1725115737.808588) vcan0 05C80615#R1
(1725115738.009256) vcan0 06EE7134#4091F64D36AE1617
(1725115738.227851) vcan0 09D5046C#46331E5E539E353E
(1725115738.428088) vcan0 4EF##44E8977380B49DE5F4E8977380B49DE5F4E8977380B49DE5F4E8977380B49DE5F4E8977380B49DE5F4E8977380B49DE5F
(1725115738.637664) vcan0 362#R8
(1725115738.837806) vcan0 04BF5914##5A5E6CE6C82151D60A5E6CE6C82151D60A5E6CE6C82151D60A5E6CE6C82151D60A5E6CE6C82151D60A5E6CE6C82151D60
(1725115739.038697) vcan0 0445FC7E#4E8AFC1AEBD8ED43
(1725115739.313075) vcan0 524##7
(1725115739.518051) vcan0 756##5
(1725115739.739729) vcan0 552#12F8A223A1560721
(1725115739.940059) vcan0 18A##5E43E4E
(1725115740.159413) vcan0 03C#A61FEA6AE1469146
(1725115740.366955) vcan0 0ADE3153#89D4737EA2BBDA45
(1725115740.575708) vcan0 068##66A66A1791506
(1725115740.776138) vcan0 6C1##6FB398C2B8184571AFB398C2B8184571AFB398C2B
(1725115740.991445) vcan0 31F#93FF5A33
(1725115741.198406) vcan0 0AE4D02A#78B28D2A0E0F337F
(1725115741.399505) vcan0 0A1##5852A37264788954C852A37264788954C
(1725115741.611389) vcan0 1EC5E376##68AF95D0A00B8393D8AF95D0A00B8393D8AF95D0A
(1725115741.821199) vcan0 192315D5#R8
(1725115742.035797) vcan0 16E9D52D#R
(1725115742.244712) vcan0 3F0##456B1972B8443D1
(1725115742.449566) vcan0 1CB#R8
(1725115742.702736) vcan0 14A#R4
(1725115742.903255) vcan0 032#C7B6C81FBD
(1725115743.103803) vcan0 1D172C04#ADC7
(1725115743.329919) vcan0 13D9EE2A#D2AE0355
(1725115743.530468) vcan0 1DB40E54#R3
(1725115743.740724) vcan0 116C161D##535559E5351
(1725115743.953173) vcan0 7F2#R8
(1725115744.185265) vcan0 7C9##6AF4C3648904EC316AF4C3648904EC316AF4C3648
(1725115744.445325) vcan0 3F5#7AEB741B
(1725115744.654025) vcan0 021FBF4C##6CF438F201E6E2337CF438F201E6E2337CF438F201E6E2337CF438F201E6E2337
(1725115744.854802) vcan0 22C#E361
(1725115745.065738) vcan0 36B#R8
(1725115745.267256) vcan0 09DB7B49##7DA72
(1725115745.469650) vcan0 0062D044##6B7CC9C60F31C9928B7CC9C60F31C9928B7CC9C60F31C9928B7CC9C60F31C9928B7CC9C60F31C9928B7CC9C60F31C9928B7CC9C60F31C9928B7CC9C60F31C9928
(1725115745.670349) vcan0 082B609F##7D376191A1A4CA003
(1725115745.870515) vcan0 18D96B6E##65876CE403EAF
(1725115746.070920) vcan0 238#F6F5BA511B3C726E
(1725115746.271081) vcan0 0FDE3212##6299D2E7FA387
(1725115746.492304) vcan0 125ABE68##5B948074A4231DB55B948074A4231DB55B948074A4231DB55
(1725115746.694122) vcan0 1DD8C345##482C6AB78FC8F
(1725115746.945312) vcan0 2C2##6622F341895390439622F341895390439622F3418
(1725115747.251552) vcan0 1B5CFBED#1B480130
(1725115747.454214) vcan0 19F##4ACA5834995B79F1EACA5834995B79F1EACA5834995B79F1EACA5834995B79F1E
(1725115747.657937) vcan0 1F8391E8#R7
(1725115747.877672) vcan0 046##63774002600890D1F3774002600890D1F
(1725115748.253891) vcan0 50A#R5
(1725115748.461825) vcan0 1BFD3EBD#DCCCFC411F6E3114
(1725115748.743393) vcan0 192#E8F4A831AD513F3C
(1725115749.274699) vcan0 12A##4D028FA38D6EE7206D028FA38D6EE7206D028FA38D6EE7206D028FA38D6EE7206
(1725115749.495078) vcan0 169##48AB44176881917378AB44176881917378AB44176881917378AB44176881917378AB44176881917378AB4417688191737
(1725115749.758700) vcan0 5D4#4A9DB5550B9A9371
(1725115749.959856) vcan0 1C9DBC06##7142F114849
(1725115750.171782) vcan0 355##4F090672F31D8
(1725115750.377135) vcan0 0D4##533F380
(1725115750.585655) vcan0 053ACF85#BE460B5755F8
(1725115750.785968) vcan0 1ECF11A0#R8
(1725115750.986371) vcan0 0EDD3E4B##5161D163695DB9204161D163695DB9204161D163695DB9204161D163695DB9204161D163695DB9204161D163695DB9204161D163695DB9204161D163695DB9204
(1725115751.187175) vcan0 7E5##620ADFB32F92E522920ADFB32F92E522920ADFB32F92E5229
(1725115751.388145) vcan0 1B9C27C2#EC8EB570B2B8036B
(1725115751.588732) vcan0 1AA81812##743F4D003450B29
(1725115751.789542) vcan0 11B827B4##42A8EDD38726EC3282A8EDD38726EC328
(1725115751.989930) vcan0 3E7#DE7C
(1725115752.191526) vcan0 14734025#R8
(1725115752.392097) vcan0 0F7EB846##4
(1725115752.592382) vcan0 16E54FC5#R8
(1725115752.792849) vcan0 1404D8E7##662DF50
(1725115752.993693) vcan0 6A5#D2DCCF4FCFDC4057
(1725115753.194319) vcan0 7F2#62E3E319D12C
(1725115753.394504) vcan0 1687299F#R6
(1725115753.595399) vcan0 00A##45227
(1725115753.796347) vcan0 36C#B106DE63D379A213
(1725115753.996497) vcan0 48C#23514E69EE2B4930
(1725115754.196904) vcan0 32B#C2140B
(1725115754.406088) vcan0 1B5C7812##4
(1725115754.619769) vcan0 15F67332#B7792C2F
(1725115754.833135) vcan0 3E9#12F5E242
(1725115755.034110) vcan0 69A##79D76663C4B75880C
(1725115755.234723) vcan0 0371D0FD##636EBC6692022C0
(1725115755.435035) vcan0 09440B1A#59687658DD1F4F32
(1725115755.635705) vcan0 7BC#3885F712D58FAD38
(1725115755.836714) vcan0 1F9#7978B34EB10BFA6A
(1725115756.036966) vcan0 0E495969#0551DF2A7B4E2C31
(1725115756.237330) vcan0 3F3##57ED9393690
(1725115756.446217) vcan0 185971FA#38F4DF3F305D2002
(1725115756.646892) vcan0 09A9E1FE#F82AE840574A2022
(1725115756.847851) vcan0 1CECD041##517205F
(1725115757.048858) vcan0 37B#F09CD5
(1725115757.249687) vcan0 6F2#BE42B241F76F2969
(1725115757.449822) vcan0 595#R8
(1725115757.650533) vcan0 1CAA234F##60912E87C87178A3C0912E87C87178A3C0912E87C87178A3C0912E87C87178A3C
(1725115757.850688) vcan0 1155C7B6#R5
(1725115758.050825) vcan0 6AF#R
(1725115758.251183) vcan0 0209E7D8#DCFF
(1725115758.452007) vcan0 300##5943B2B05BF351F23943B2B05BF351F23
(1725115758.652140) vcan0 76C##49DCF5162
(1725115758.853108) vcan0 178C4E18##5755339242160745475533924
(1725115759.053624) vcan0 1E5BF9B2#B69452173A08E303
(1725115759.291449) vcan0 1FA6D893##577DD326782267F0877DD326782267F08
(1725115759.492246) vcan0 5E0#F21F9C72BDF50251
(1725115759.693662) vcan0 0C7F7629##4DD36923CBDB1AA71DD36923CBDB1AA71DD36923CBDB1AA71DD36923CBDB1AA71
(1725115759.897386) vcan0 28F#R8
(1725115760.098263) vcan0 438#2D05C95FAD
(1725115760.317222) vcan0 05E##53EF0010215353A083EF0010215353A083EF0010215353A083EF0010215353A083EF0010215353A083EF0010215353A083EF0010215353A083EF0010215353A08
(1725115760.524141) vcan0 2C5##68450EA1B3CE83C21
(1725115760.725046) vcan0 634##68542E97A27C63D248542E97A27C63D248542E97A27C63D248542E97A27C63D24
(1725115760.926166) vcan0 5A8##6
(1725115761.135659) vcan0 0080DB14#360FB235E4
(1725115761.340908) vcan0 00E690BA#86D9C351E895AF20
(1725115761.557679) vcan0 0DFBA1ED#29E269742B92
(1725115761.764664) vcan0 093693C3##603
(1725115761.984256) vcan0 1212AD2E#4A63C372B3EFFB2C
(1725115762.184673) vcan0 724##4F28CBD0BBCF33616F28CBD0BBCF33616F28CBD0B
(1725115762.385109) vcan0 2FF#
(1725115762.585960) vcan0 237#
(1725115762.807157) vcan0 59A#R8
(1725115763.022864) vcan0 27A##5C744C0057ECB
(1725115763.271331) vcan0 1104C9F4#49A24C073F2DC843
(1725115763.472286) vcan0 024CF2EB##7BA2DE5
(1725115763.674515) vcan0 1616FF9A##7EF26FC5B90281238EF26FC5B90281238EF26FC5B90281238EF26FC5B90281238
(1725115763.875810) vcan0 155222A4##404A0C56475A79A
(1725115764.082276) vcan0 0DC#2F4C884DFB373841
(1725115764.285941) vcan0 0940F405##45938FF5ACC38
(1725115764.486330) vcan0 027#
(1725115764.687354) vcan0 1ACA36FF##76394DB72B964AF486394DB72B964AF486394DB72
(1725115764.892274) vcan0 181FEC82#R3
(1725115765.108057) vcan0 1F64E52A##4AA4FE67A2E85
(1725115765.373358) vcan0 1CB3862F##69A426C365ED23B2A9A426C365ED23B2A9A426C36
(1725115765.675235) vcan0 76D##57C98A4
(1725115765.880271) vcan0 063BEE70##7EF01840210BD6E4FEF01840210BD6E4FEF01840210BD6E4FEF01840210BD6E4FEF01840210BD6E4FEF01840210BD6E4F
(1725115766.080757) vcan0 1EF##7B9A7831452C62D39B9A7831452C62D39B9A7831452C62D39B9A7831452C62D39B9A7831452C62D39B9A7831452C62D39B9A7831452C62D39B9A7831452C62D39
(1725115766.285630) vcan0 4F3#1CBDAE31
(1725115766.486254) vcan0 1FF##55CFCD72E
(1725115766.687049) vcan0 17E0D9E7##46EADFB28821C4D4E6EADFB28
(1725115766.889344) vcan0 1891BB74##59AB8D91DF153365A9AB8D91DF153365A9AB8D91DF153365A9AB8D91DF153365A9AB8D91DF153365A9AB8D91DF153365A9AB8D91DF153365A9AB8D91DF153365A
(1725115767.091239) vcan0 7C9##5A4
(1725115767.310621) vcan0 602##481F3195ABC1DC0
(1725115767.511220) vcan0 0D024C4A#R8
(1725115767.732985) vcan0 19132B14#R5
(1725115767.958018) vcan0 1590C150##7E80CC70ABE6E8C3E
(1725115768.167508) vcan0 71F##6CA8168
(1725115768.374307) vcan0 580#85C0
(1725115768.680638) vcan0 01A7BFF7##6E2145F1F79B3C1
(1725115768.880833) vcan0 01BAC6DC##492D702
(1725115769.081666) vcan0 02826F4B#8E5CAD6E3959757D
(1725115769.292701) vcan0 1953499E##7887F2E1686561A64887F2E16
(1725115769.499237) vcan0 562#7BB3B0082C1F
(1725115769.740364) vcan0 1A05319F##7E27C913F24F2CB2BE27C913F24F2CB2BE27C913F24F2CB2BE27C913F24F2CB2B
(1725115769.999563) vcan0 61D##4F92CD052FFBA2115F92CD052FFBA2115F92CD052FFBA2115
(1725115770.236068) vcan0 0361D9DD#5865F9316FB16421
(1725115770.451135) vcan0 196E6E81#4404B81A0FCB1B68
(1725115770.652184) vcan0 273#7D946234FB014967
(1725115770.943421) vcan0 5C5#DAC0C75E40D1A50E
(1725115771.253517) vcan0 639##63743AA701B4B954A3743AA701B4B954A3743AA701B4B954A3743AA701B4B954A3743AA701B4B954A3743AA701B4B954A3743AA701B4B954A3743AA701B4B954A
(1725115771.454152) vcan0 109#20A7EA61030E791B
(1725115771.668389) vcan0 4B5#R
(1725115771.881917) vcan0 1896DB99##70ABA2664DDDF4E730ABA2664DDDF4E730ABA2664DDDF4E730ABA2664DDDF4E730ABA2664DDDF4E730ABA2664DDDF4E73
(1725115772.086643) vcan0 058333FE#R
(1725115772.292220) vcan0 37F#AA
(1725115772.497310) vcan0 234##461BA
(1725115772.697651) vcan0 765##7E6F6541A85
(1725115772.918149) vcan0 31E#R8
(1725115773.118643) vcan0 1D6A75A8##5D5B54E0CB22F9161D5B54E0CB22F9161D5B54E0C
(1725115773.326403) vcan0 173#F8
(1725115773.526980) vcan0 18265344#6E12D560EE56692F
(1725115773.733030) vcan0 1F0##528F46C
(1725115773.940285) vcan0 1E69F9D6##70405F235BDF0BE
(1725115774.140546) vcan0 1441F97D#R8
(1725115774.341020) vcan0 0E25C2BF#D8116E799478743A
(1725115774.582077) vcan0 680#E1DE7C57798DEC
(1725115774.782620) vcan0 18770B0E#02490D417C1D4C59
(1725115774.983393) vcan0 298#CF50690EC1767F3A
(1725115775.184136) vcan0 01846F5E##7769F4721627476
(1725115775.407663) vcan0 1B3#30F5357A2B175839
(1725115775.638827) vcan0 1EE85A3D#328FFC6B166C5678
(1725115775.839412) vcan0 262##7862C592743E9
(1725115776.040504) vcan0 17C5284B##7CD
(1725115776.241951) vcan0 079##73BF9460E4801
(1725115776.443165) vcan0 1D6A64FA##53FDB4D427004
(1725115776.645194) vcan0 493#E8526776
(1725115776.845916) vcan0 138C969D##739
(1725115777.051212) vcan0 027371B7##5AD02
(1725115777.251634) vcan0 06F59ABD#C70D297C8A13C454
(1725115777.452721) vcan0 01CE1F95##5BD2B49
(1725115777.653109) vcan0 12AD9665##6F135FB5CA471FB14F135FB5CA471FB14
(1725115777.853733) vcan0 2F9##65EB0DC4BE16D11
(1725115778.079956) vcan0 04DFF5AD##6FC6B3204E6146165FC6B3204E6146165FC6B3204E6146165FC6B3204E6146165FC6B3204E6146165FC6B3204E6146165
(1725115778.280313) vcan0 413##7805A152DC066D768805A152DC066D768805A152DC066D768805A152DC066D768805A152DC066D768805A152DC066D768
(1725115778.480954) vcan0 1CE573F5##664EB3253BC810E7964EB3253BC810E7964EB3253BC810E7964EB3253BC810E79
(1725115778.681115) vcan0 0D97233B##50A
(1725115778.881438) vcan0 06629E55#EB37715846D45D03
(1725115779.082116) vcan0 226##4
(1725115779.282257) vcan0 1E98E534#A061
(1725115779.489667) vcan0 3EE#R3
(1725115779.689784) vcan0 092#811D0D
(1725115779.890257) vcan0 289#717D
(1725115780.091123) vcan0 14B63793##689636E157E6F276D89636E15
(1725115780.291873) vcan0 13F7BA8B##76F6D065B
(1725115780.492100) vcan0 041FCA91#5BF4A837312CD73E
(1725115780.693939) vcan0 12696973#6DAB3F492A65FE34
(1725115780.894319) vcan0 1E7FC771#F0F88259F2E48C23
(1725115781.094445) vcan0 510##4E4C09D4582522F72E4C09D4582522F72E4C09D45
(1725115781.294987) vcan0 117E3F0F##7F8CC094098
(1725115781.495191) vcan0 10084B27##43823D7
(1725115781.696060) vcan0 761#E1C16250BCABC95F
(1725115781.896359) vcan0 0D39B80A#R8
(1725115782.096739) vcan0 1C650605#R8
(1725115782.297231) vcan0 010391C8##65627B105AC52
(1725115782.499599) vcan0 265#9DB067375D172439
(1725115782.700572) vcan0 230#7891F05968
(1725115782.932154) vcan0 660#R8
(1725115783.132633) vcan0 116F4D9D#B545690B15B52A4A
(1725115783.333583) vcan0 129AC00E##4ABB6567924C00003ABB6567924C00003
(1725115783.534546) vcan0 11DCC686##7158ECA5ADDED8D37158ECA5ADDED8D37158ECA5ADDED8D37
(1725115783.734833) vcan0 49D#R2
(1725115783.937204) vcan0 2A9#25B2F83221FCC13B
(1725115784.138106) vcan0 0733CD41##49D
(1725115784.343599) vcan0 222##40D43
(1725115784.551827) vcan0 1EF5CED0##55129C70C7C85
(1725115784.762096) vcan0 360##6F6A9
(1725115784.962835) vcan0 01C64E8E##722725F
(1725115785.189509) vcan0 1C2##7B99A3340E773240FB99A3340E773240FB99A3340E773240F
(1725115785.393970) vcan0 1FA8778C#2E96284E29D98978
(1725115785.608765) vcan0 1ADCB0F0#CF65025DFDF37435
(1725115785.809307) vcan0 0339D406##409DB3D3857FD003009DB3D3857FD003009DB3D3857FD003009DB3D3857FD003009DB3D3857FD003009DB3D3857FD0030
(1725115786.010465) vcan0 313##64C94E07609DD7A
(1725115786.224524) vcan0 1897CE2C#41789F6C4E40F72A
(1725115786.440765) vcan0 1EAA038F##6
(1725115786.678527) vcan0 11488BB4##51FB79F0C
(1725115786.879223) vcan0 3CC##74A5A
(1725115787.079368) vcan0 09D39D6D##79D
(1725115787.280106) vcan0 1E7#R8
(1725115787.480596) vcan0 5DD#
(1725115787.681478) vcan0 4A7##7BE767732AE041E4CBE767732AE041E4CBE767732AE041E4CBE767732AE041E4C
(1725115787.882452) vcan0 08BEECB5#C9FD
(1725115788.082791) vcan0 4C7#
(1725115788.283848) vcan0 06E84BE5##6DC6E5D7B83D5150BDC6E5D7B83D5150BDC6E5D7B83D5150BDC6E5D7B83D5150BDC6E5D7B83D5150BDC6E5D7B83D5150BDC6E5D7B83D5150BDC6E5D7B83D5150B
(1725115788.484077) vcan0 1D4##580081B2F8385421080081B2F83854210
(1725115788.685439) vcan0 114##7
(1725115788.886104) vcan0 6AC##72BE33E256A2DE9
(1725115789.086321) vcan0 03C1CB20#F73EA259EAC8CA60
(1725115789.296694) vcan0 1679F13B##493
(1725115789.497389) vcan0 108696CE##442E14B6AAA05E4
(1725115789.698355) vcan0 638##6243F987BB846161B243F987BB846161B243F987BB846161B243F987BB846161B243F987BB846161B243F987BB846161B
(1725115789.898888) vcan0 4C3##462E8F479C18E754362E8F479C18E754362E8F479C18E754362E8F479C18E7543
(1725115790.099038) vcan0 1F8E81E1#F5C65E5D0C65CD44
(1725115790.306340) vcan0 58A#R8
(1725115790.506631) vcan0 1F7F4AEB##5C8AE3D1E7F107A62C8AE3D1E7F107A62C8AE3D1E7F107A62C8AE3D1E7F107A62
(1725115790.707348) vcan0 08EBAB8B##746DEDD4BCD8C375346DEDD4BCD8C375346DEDD4BCD8C375346DEDD4BCD8C3753
(1725115790.908740) vcan0 600#R5
(1725115791.109259) vcan0 178##78BE96074DB3944
(1725115791.314704) vcan0 01A20698#17D6C85C8DCD007F
(1725115791.515358) vcan0 0EF#F5502F20E7D51151
(1725115791.716275) vcan0 20C##6579D8E
(1725115791.917488) vcan0 166##4
(1725115792.130049) vcan0 597##733FC1C030E42E90833FC1C030E42E90833FC1C030E42E908
(1725115792.331784) vcan0 1D660DF1#B8C4BD317CF7
(1725115792.532590) vcan0 1B9F5561#1D894F2878
(1725115792.733609) vcan0 1E6##4BA0E054BDBFA1E00
(1725115792.934000) vcan0 16DD0654##7226BA46BACA36B2C
(1725115793.134934) vcan0 1EAF9C74#R2
(1725115793.336173) vcan0 060C134B##76B0251567F0F29296B0251567F0F29296B025156
(1725115793.536530) vcan0 01A2C53C#R
(1725115793.739172) vcan0 0A4A9DA1#0213BF4BBF26
(1725115793.939832) vcan0 1E28DEA4##7377F69515F
(1725115794.140016) vcan0 186#681051
(1725115794.340821) vcan0 0DC04E25##772F4C6454330E24F72F4C6454330E24F72F4C6454330E24F72F4C6454330E24F
(1725115794.542002) vcan0 17D9E931#DD4038059CEB2A2E
(1725115794.743073) vcan0 17CD7D96#7E70A625D64D9B4C
(1725115794.943655) vcan0 56B##7241A2E126D98BB49
(1725115795.143967) vcan0 199624F3##5DC
(1725115795.344830) vcan0 65C#24
(1725115795.550104) vcan0 783##677736E26F5E35A4377736E26F5E35A43
(1725115795.770272) vcan0 01FAB9A9#BC80945E86FA
(1725115796.010107) vcan0 1DABD3C9##49C692D79474452239C692D79474452239C692D7947445223
(1725115796.285841) vcan0 1C5BA46A##46BB1
(1725115796.486240) vcan0 0C01C3A2##731D9
(1725115796.687064) vcan0 5A1#5DF59B4AC5951E75
(1725115797.014760) vcan0 1A3997B7##78A20867A2F0BA8208A20867A
(1725115797.242555) vcan0 5B7##76536425173DEC041
(1725115797.454383) vcan0 728##77A37D668C458CF137A37D668C458CF137A37D668C458CF137A37D668C458CF13
(1725115797.663907) vcan0 56D#37C00D04D8AEF356
(1725115797.884963) vcan0 256#R8
(1725115798.331878) vcan0 6EB#R8
(1725115798.540806) vcan0 172##7
(1725115798.749965) vcan0 03E6BD76##707841422
(1725115799.009323) vcan0 0BEA4365##5649061
(1725115799.220349) vcan0 052086E9##5F538C57320472E29F538C57320472E29F538C57320472E29F538C57320472E29
(1725115799.451138) vcan0 1279F4B1#A0991B43F093
(1725115799.692294) vcan0 298##7279E55606B20DC0F279E55606B20DC0F279E5560
(1725115799.900859) vcan0 1B7C6D15##4238B9C564DC15509238B9C564DC15509238B9C564DC15509238B9C564DC15509238B9C564DC15509238B9C564DC15509
(1725115800.212657) vcan0 252##68E4399
(1725115800.444329) vcan0 1B6##7A15530521AB2EF57A15530521AB2EF57A15530521AB2EF57A15530521AB2EF57A15530521AB2EF57A15530521AB2EF57
(1725115800.687507) vcan0 168##7EB0400
(1725115800.893731) vcan0 02262C10##49AE9843EB0C541259AE9843EB0C541259AE9843EB0C541259AE9843EB0C541259AE9843EB0C541259AE9843EB0C54125
(1725115801.099203) vcan0 698##7D90D9B68BFEC2719D90D9B68
(1725115801.299866) vcan0 4FD#923A9836
(1725115801.531117) vcan0 07FD7E6D#E49936
(1725115801.731499) vcan0 482#8B
(1725115801.981627) vcan0 729#CFCE2405142C1664
(1725115802.301439) vcan0 6F3#F77C305B
(1725115802.501929) vcan0 1088CFF5#1E96DC1ECF
(1725115802.702283) vcan0 6D2#B8CD86106569AF18
(1725115803.073237) vcan0 0DA#5FED
(1725115803.451304) vcan0 02F0762C#7F
(1725115803.692670) vcan0 34B#
(1725115803.899207) vcan0 2D8#18BCA178CF1F0E57
(1725115804.110211) vcan0 1ED##6BF00A8300B
(1725115804.347349) vcan0 4A3#60904C5A5C42117D
(1725115804.610360) vcan0 0AE8C34C##415F06F1EACB0
(1725115804.818835) vcan0 1E2#353D9D6C61271C45
(1725115805.029823) vcan0 13BD2E9A##76F6F16668A1374706F6F16668A1374706F6F16668A137470
(1725115805.329351) vcan0 187BD363##5D47D
(1725115805.565962) vcan0 76F##4F7C5F64A2EF8D513F7C5F64A
(1725115805.783862) vcan0 38B#5278
(1725115806.119074) vcan0 095##764DA0369AA7080
(1725115806.329961) vcan0 0E4D8858##4BBBE12658EC5EA1ABBBE12658EC5EA1ABBBE12658EC5EA1ABBBE12658EC5EA1A
(1725115806.535613) vcan0 64A##79B7CE950B965F062
(1725115806.750381) vcan0 162##414BE6D2B3637655714BE6D2B3637655714BE6D2B36376557
(1725115806.963570) vcan0 446#R5
(1725115807.408348) vcan0 375#A693C94EC8834E57
(1725115807.628920) vcan0 0C3B42D4##4EBF85A3C381D3F35EBF85A3C381D3F35EBF85A3C381D3F35EBF85A3C381D3F35
(1725115807.860990) vcan0 0CE#
(1725115808.077811) vcan0 183##7465F1F4D
(1725115808.309304) vcan0 6F8##7
(1725115808.510403) vcan0 02B2AD42##55C4D6A
(1725115808.720706) vcan0 0AD37430#5901B105D6079D19
(1725115809.022687) vcan0 1125130D#DE722828F80B802D
(1725115809.321087) vcan0 7E6##4730DA47E7B67
(1725115809.533790) vcan0 091#25321E76D8D73A4A
(1725115809.782878) vcan0 10DADDB3#R
(1725115809.984663) vcan0 1F154D55#R
(1725115810.185847) vcan0 14D130C2##49C39
(1725115810.399193) vcan0 01D#R8
(1725115810.617038) vcan0 145#E7ED
(1725115810.818039) vcan0 237##75D833F3C5C0CF7705D833F3C5C0CF770
(1725115811.018596) vcan0 27A##4F265507D18F9494CF265507D18F9494CF265507D18F9494CF265507D18F9494CF265507D18F9494CF265507D18F9494CF265507D18F9494CF265507D18F9494C
(1725115811.219280) vcan0 0B6FC9D0#0D1C8C7201E70540
(1725115811.419483) vcan0 00BC6AF0##701F031
(1725115811.620078) vcan0 6B9##7078F007B1C68EA32078F007B1C68EA32
(1725115811.820862) vcan0 027##5896A
(1725115812.021054) vcan0 4E7##66457ED4F4458
(1725115812.234937) vcan0 686##4B29E505E79E41774B29E505E79E41774B29E505E79E41774B29E505E79E41774B29E505E79E41774B29E505E79E41774
(1725115812.436006) vcan0 07264B1F##54462D34D2C67B2794462D34D
(1725115812.683915) vcan0 363##60DAD64146433E4210DAD64146433E4210DAD64146433E421
(1725115812.903961) vcan0 03BDF6EB#54C3B237F285BE7E
(1725115813.118070) vcan0 2FA##69CD3BA5583954A6B9CD3BA5583954A6B
(1725115813.318615) vcan0 3B7#6EDC1C0F1B33F618
(1725115813.519164) vcan0 111##76DE5
(1725115813.725657) vcan0 15E60144##66444
(1725115813.926556) vcan0 1AE##72AB43325BB864F572AB43325BB864F572AB43325BB864F57
(1725115814.126924) vcan0 2D4#6E14564928EE
(1725115814.332875) vcan0 0B46B6A9#R2
(1725115814.550572) vcan0 5DB##510195D384A7A643F10195D384A7A643F10195D384A7A643F
(1725115814.751130) vcan0 3BF#R8
(1725115814.951951) vcan0 0D5##7
(1725115815.153503) vcan0 00E#R7
(1725115815.372638) vcan0 735##44803394FA3BBC73E4803394FA3BBC73E4803394FA3BBC73E
(1725115815.664963) vcan0 6E1#577EA73E9470B735
(1725115815.865504) vcan0 4FD##4
(1725115816.083374) vcan0 3A6##6159463506046D96A159463506046D96A159463506046D96A
(1725115816.294972) vcan0 733#R5
(1725115816.511578) vcan0 361##755
(1725115816.712410) vcan0 0C65D0F7#R8
(1725115816.912762) vcan0 5BA##76A
(1725115817.121543) vcan0 1FC##5265A5A408BCC3A73265A5A408BCC3A73265A5A408BCC3A73265A5A408BCC3A73265A5A408BCC3A73265A5A408BCC3A73
(1725115817.322077) vcan0 2E0#R1
(1725115817.530892) vcan0 3E1##4C7359C3749E14513
(1725115817.786348) vcan0 12FA8236##69CE8D1228BCD340B9CE8D1228BCD340B
(1725115818.119205) vcan0 215#6A84EF
(1725115818.418170) vcan0 14F17F88##4E44DDD57F3EC
(1725115818.705423) vcan0 1238999A##5762D6C3EC0F39272762D6C3EC0F39272762D6C3EC0F39272762D6C3EC0F39272762D6C3EC0F39272762D6C3EC0F39272762D6C3EC0F39272762D6C3EC0F39272
(1725115818.965232) vcan0 492##6
(1725115819.178032) vcan0 1AE1FA3E#BD93E30905307E12
(1725115819.380114) vcan0 10A35F18#4F87D914B4477533
(1725115819.580477) vcan0 168ECC3F##54A1E4828AA507E024A1E4828AA507E02
(1725115819.789843) vcan0 1B81910D#BB44
(1725115820.005856) vcan0 1B068123#1514940599AE7219
(1725115820.217226) vcan0 78F#ED427B303B23A443
(1725115820.435232) vcan0 1EED9082#01CA5B3A4024D148
(1725115820.636104) vcan0 0248A4A6##7BAFF7C16F52B2217
(1725115820.846914) vcan0 072A7F81#D7643A35CB
(1725115821.218439) vcan0 0771313C##711199F47F8755700
(1725115821.451463) vcan0 637##65686EA234CEAA46C5686EA234CEAA46C5686EA23
(1725115821.655543) vcan0 2A2#DFB833428F35902C
(1725115821.870427) vcan0 07E88984##59062
(1725115822.189759) vcan0 00F##4AA6DC30DCAAF4175AA6DC30DCAAF4175AA6DC30D
(1725115822.390704) vcan0 1AAD38B7#561C60098E9DE74F
(1725115822.703446) vcan0 198F6535##5EFFBD236467E2E41EFFBD236467E2E41EFFBD236
(1725115823.021414) vcan0 152609B9##4DE3B0E730F901019DE3B0E730F901019DE3B0E730F901019DE3B0E730F901019
(1725115823.280840) vcan0 07DEE192#A560
(1725115823.481054) vcan0 0FB4A5BC#537E332D4C
(1725115823.691843) vcan0 018268A5##6A66FCC7850D6456FA66FCC7850D6456FA66FCC7850D6456F
(1725115823.908142) vcan0 3C7##57197E76D1DB0DB
(1725115824.119468) vcan0 488##5617B
(1725115824.320541) vcan0 08E3C024#R1
(1725115824.520866) vcan0 15BD26E0#F37CF573
(1725115824.738776) vcan0 15AB3534#FA
(1725115824.939649) vcan0 141E1375#E9ED9A7F1C83EA6C
(1725115825.145607) vcan0 1116560F#R3
(1725115825.346404) vcan0 1774AE1B#53DCAC367C29A808
(1725115825.547149) vcan0 0F466FEC#
(1725115825.747386) vcan0 6F4##436C34E
(1725115825.948073) vcan0 33B#A933000235D7107F
(1725115826.148538) vcan0 05616936##4D198CD3E2057FC04D198CD3E2057FC04D198CD3E
(1725115826.349489) vcan0 12748B4E##5AA847F61D38C0E30AA847F61D38C0E30AA847F61D38C0E30AA847F61D38C0E30AA847F61D38C0E30AA847F61D38C0E30AA847F61D38C0E30AA847F61D38C0E30
(1725115826.550119) vcan0 3AB#BAECD44DFF276E37
(1725115826.753197) vcan0 73B##60A4EB761EEBB4F260A4EB761EEBB4F260A4EB761
(1725115826.953792) vcan0 3AC##7D16E
(1725115827.154742) vcan0 18C47539#E52FAD0DE2A8C41A
(1725115827.360488) vcan0 0819AC88##4FEF3F5515945E746FEF3F551
(1725115827.580023) vcan0 120F61C5#R8
(1725115827.780662) vcan0 1045B119##66A98ED30D39D1A3E6A98ED30D39D1A3E6A98ED30
(1725115827.981449) vcan0 4D4##605F27212DF4AD06205F27212DF4AD06205F27212DF4AD06205F27212DF4AD06205F27212DF4AD06205F27212DF4AD062
(1725115828.182001) vcan0 0946E1F4#R8
(1725115828.382957) vcan0 2A9##78BA73F128E62A6138BA73F128E62A6138BA73F128E62A6138BA73F128E62A6138BA73F128E62A6138BA73F128E62A6138BA73F128E62A6138BA73F128E62A613
(1725115828.583812) vcan0 1106B0DE#FA80A639DCA4
(1725115828.784821) vcan0 233#18
(1725115828.985754) vcan0 056D8293#2C1FEB1CFD
(1725115829.186806) vcan0 146#968C
(1725115829.387447) vcan0 19488593#3CE1496C73512209
(1725115829.588047) vcan0 1ED356AA#0464164936FE1231
(1725115829.788284) vcan0 2E5##6C0F5813E
(1725115829.988945) vcan0 01294A30#925A22
(1725115830.189061) vcan0 02BD47A3##764F0475FCF66A87F64F0475FCF66A87F64F0475FCF66A87F
(1725115830.389759) vcan0 07A63FEC#R5
(1725115830.600336) vcan0 0AAD875C#A098D1479968
(1725115830.800792) vcan0 122C36A5#A527D8
(1725115831.009524) vcan0 199A0E4F#R8
(1725115831.210000) vcan0 0E0DC07F##7
(1725115831.432139) vcan0 0A213E32#65AF0B1996
(1725115831.632440) vcan0 43E#9AA9E7
(1725115831.833396) vcan0 4FB##51C8DFB349B8D
(1725115832.046969) vcan0 1CB830A6##723
(1725115832.247100) vcan0 59C##679CC6F092ABAAE4979CC6F092ABAAE4979CC6F09
(1725115832.454642) vcan0 03868DE8##6EBB88B1E6B8DA338EBB88B1E
(1725115832.658336) vcan0 14FD7674##670F8D90AD925090E70F8D90AD925090E70F8D90AD925090E70F8D90AD925090E
(1725115832.858927) vcan0 156FC1F4##4B6683D5D8E6B5708
(1725115833.059197) vcan0 3BC##4482B8B6FD9309A48482B8B6F
(1725115833.260162) vcan0 1399FC28#66B2286D4B8C734D
(1725115833.460333) vcan0 150##665200D66CADD2E
(1725115833.677120) vcan0 310##4BB0E
(1725115833.877647) vcan0 0F82A476#R
(1725115834.078354) vcan0 6EE##662C2EF2CA427896A62C2EF2CA427896A62C2EF2C
(1725115834.278531) vcan0 0F638564#F3
(1725115834.479543) vcan0 118##6B95D144C
(1725115834.693485) vcan0 04F71783##70713276EE937040B0713276EE937040B0713276EE937040B0713276EE937040B0713276EE937040B0713276EE937040B
(1725115834.894428) vcan0 719#R8
(1725115835.151797) vcan0 1FCB1F68#66C1137F23E4E820
(1725115835.351964) vcan0 0BF9A1B0#0C
(1725115835.568630) vcan0 07662076#1696E516694B
(1725115835.769523) vcan0 250##4F7
(1725115835.972004) vcan0 19C08016##7CD0C3A2C1D93E767CD0C3A2C1D93E767CD0C3A2C1D93E767CD0C3A2C1D93E767
(1725115836.172314) vcan0 766##56F020F50B1ED
(1725115836.373135) vcan0 10460965##6564A9848CBCA594F564A9848
(1725115836.575169) vcan0 187#R8
(1725115836.776343) vcan0 110F5F03#03BA895C19F5F407
(1725115836.977289) vcan0 03C55425##4F467CB0E1C9B891DF467CB0E1C9B891D
(1725115837.177407) vcan0 017797F3##4007F0B
(1725115837.377609) vcan0 676#87E8190DE6C0
(1725115837.578483) vcan0 1098D892##5F1664528E8223119F1664528E8223119F1664528
(1725115837.779287) vcan0 02D##59101C5027BECB32A9101C5027BECB32A9101C5027BECB32A9101C5027BECB32A9101C5027BECB32A9101C5027BECB32A9101C5027BECB32A9101C5027BECB32A
(1725115837.981952) vcan0 1701D21E##40DB44677218C8B730DB44677218C8B730DB44677218C8B730DB44677218C8B730DB44677218C8B730DB44677218C8B73
(1725115838.182120) vcan0 1434B780##501C85409741F
(1725115838.382918) vcan0 18AD3F75##49696244C75BEB8
(1725115838.583155) vcan0 4E6#4EC8D1276D2D7058
(1725115838.785056) vcan0 226##41D08650E1789286F1D08650E1789286F1D08650E1789286F1D08650E1789286F1D08650E1789286F1D08650E1789286F1D08650E1789286F1D08650E1789286F
(1725115838.998127) vcan0 15D69D33##5578D7903
(1725115839.198289) vcan0 1C09895A##73D19
(1725115839.399285) vcan0 0BBA59D5##449DD795AD6210F35
(1725115839.609833) vcan0 0F5458AC#R8
(1725115839.810658) vcan0 012627EC#AD9CF0723BF0F708
(1725115840.011594) vcan0 27F##596
(1725115840.212561) vcan0 07D#R8
(1725115840.413237) vcan0 0CCD4A7C##4758FB275B963CF74758FB275B963CF74758FB275B963CF74758FB275B963CF74758FB275B963CF74758FB275B963CF74758FB275B963CF74758FB275B963CF74
(1725115840.613838) vcan0 18DB8C78##57FD9DA64C16955137FD9DA64C16955137FD9DA64C16955137FD9DA64C16955137FD9DA64C16955137FD9DA64C1695513
(1725115840.814337) vcan0 0F5FEDDC#B0405523A1B95C1E
(1725115841.014508) vcan0 071#D9E5F1241EFDBA5A
(1725115841.214707) vcan0 770#29E4555806AF794C
(1725115841.415451) vcan0 17597FA1#R3
(1725115841.615959) vcan0 09B#R8
(1725115841.816625) vcan0 0C53E91E##422680E1A9DC22E51
(1725115842.017646) vcan0 787##6B8A0B7333788FC12B8A0B7333788FC12
(1725115842.218034) vcan0 11DA5268##6A84B6E7E4238CC56A84B6E7E
(1725115842.419076) vcan0 06E91D71##565BD
(1725115842.619257) vcan0 79E#R8
(1725115842.820516) vcan0 393##674C4
(1725115843.031938) vcan0 0CBA6F07##4DB66EB4F29D7C826
(1725115843.232166) vcan0 525##5
(1725115843.441660) vcan0 66B#918F332413E2
(1725115843.660784) vcan0 558#3AF05418
(1725115843.861728) vcan0 1FCC1EF2##75B82952A2D8D3F5E5B82952A2D8D3F5E5B82952A2D8D3F5E
(1725115844.062499) vcan0 1915FFF5##445
(1725115844.263118) vcan0 05FB5898##6
(1725115844.464542) vcan0 5EA##64A293F163A8A3A134A293F16
(1725115844.676403) vcan0 1FABD032##5BD221C12C3
(1725115844.877133) vcan0 345#R8
(1725115845.325657) vcan0 1931035C#R1
(1725115845.529443) vcan0 638##75F887F077E7446735F887F077E7446735F887F077E744673
(1725115845.735142) vcan0 1B94B13B#857D2E424F93
(1725115845.943290) vcan0 01F##6249108066AB13C5824910806
(1725115846.155226) vcan0 11997B9B##4189C0247589EB563189C0247589EB563189C0247589EB563
(1725115846.362834) vcan0 6D0#7CB65C590DA1AC7C
(1725115846.632103) vcan0 655#R8
(1725115846.837019) vcan0 72B#CCAF80
(1725115847.037939) vcan0 1FA8F9E1#58C0334F6777
(1725115847.337101) vcan0 1E5C4CE2#4E45FD2A06DE
(1725115847.606837) vcan0 0C1#8D
(1725115847.807509) vcan0 0FC213ED#R8
(1725115848.019660) vcan0 07CEDEB2##5204164003F36554A204164003F36554A204164003F36554A204164003F36554A204164003F36554A204164003F36554A
(1725115848.232549) vcan0 1A086B41#0D7819790D1B8950
(1725115848.451398) vcan0 34E##5BC8DF82DA62B3F1EBC8DF82DA62B3F1EBC8DF82DA62B3F1EBC8DF82DA62B3F1EBC8DF82DA62B3F1EBC8DF82DA62B3F1EBC8DF82DA62B3F1EBC8DF82DA62B3F1E
(1725115848.759230) vcan0 1D1##5DC8BDE751F27CC32DC8BDE75
(1725115848.959797) vcan0 11F03CCD##7
(1725115849.160326) vcan0 10B2A82A#R7
(1725115849.376592) vcan0 519#6ED60B
(1725115849.591277) vcan0 0879CFB8##41EA46302C54793011EA46302C54793011EA46302
(1725115849.813823) vcan0 114#77B914
(1725115850.014388) vcan0 5CD##643
(1725115850.215272) vcan0 5D2#A0EFAB0F035E78
(1725115850.421200) vcan0 08383459#18018461BB749E0E
(1725115850.622214) vcan0 004F4EC8##76288191736
(1725115850.823171) vcan0 06CD6F15##78AF9353C331331498AF9353C331331498AF9353C331331498AF9353C331331498AF9353C331331498AF9353C33133149
(1725115851.037235) vcan0 18189E12##4C7EF062D8A572D
(1725115851.261753) vcan0 1BE4CE81##5B863B95BC4255E
(1725115851.484467) vcan0 093A6B78#787D355C185B
(1725115851.687285) vcan0 349##6C8
(1725115851.887771) vcan0 1D360FB7#0256482F19984F14
(1725115852.093987) vcan0 611#4E6510179BBF5A5C
(1725115852.332974) vcan0 202##4AA9E6C52C9917F20AA9E6C52C9917F20AA9E6C52C9917F20AA9E6C52C9917F20
(1725115852.536968) vcan0 137121C1##58F52EC5A7A852A6F8F52EC5A7A852A6F
(1725115852.737089) vcan0 190##7A459
(1725115852.990858) vcan0 0EEA8B3E##67CDB
(1725115853.196367) vcan0 7A9#DD81E868AB356F51
(1725115853.396695) vcan0 0523F23D##5067208478C57343C067208478C57343C067208478C57343C
(1725115853.605209) vcan0 0B568C68##505196202122BC33D05196202122BC33D05196202122BC33D05196202122BC33D05196202122BC33D05196202122BC33D
(1725115853.810438) vcan0 1B02CE3C##5A1EB900C
(1725115854.135319) vcan0 1AF##740C3C35853CBED6740C3C35853CBED6740C3C35853CBED67
(1725115854.335987) vcan0 0A0F0F4B#B75B
(1725115854.544153) vcan0 26B#R1
(1725115854.748553) vcan0 14C5572D#R6
(1725115854.963566) vcan0 731##4A057FB2236D0F311A057FB2236D0F311A057FB22
(1725115855.185876) vcan0 2F7##782CD
(1725115855.386125) vcan0 7D0##79AA1090A10633E
(1725115855.586467) vcan0 1E97C2FF##62D62D26EB61E9D682D62D26EB61E9D682D62D26EB61E9D68
(1725115855.794923) vcan0 3C5#9527
(1725115855.995772) vcan0 047527B2##6F1CBBA5A8C231806
(1725115856.196063) vcan0 0E092A04##617DEA120A481047117DEA120A481047117DEA120A481047117DEA120A4810471
(1725115856.397096) vcan0 05895EC5##465499454472CA57B65499454472CA57B65499454472CA57B
(1725115856.597201) vcan0 0A3#7C73F1733DAA83
(1725115856.798189) vcan0 0BEB7F17##583A1AB1A44E1BD5A83A1AB1A44E1BD5A83A1AB1A44E1BD5A
(1725115856.999184) vcan0 1071FEA7##4153D633A3D26D804153D633A
(1725115857.200215) vcan0 1E040280#6D84680171CEBE38
(1725115857.400418) vcan0 1AE60CE9##6384C0F6500
(1725115857.601863) vcan0 72B##6B6DEF85B91
(1725115857.802153) vcan0 1EA#2342D62E
(1725115858.002700) vcan0 14A##4AE605A1ACE12E04AAE605A1ACE12E04AAE605A1ACE12E04AAE605A1ACE12E04A
(1725115858.203465) vcan0 0312ECA1#CB424715B6
(1725115858.403945) vcan0 7F0##4A28577295D8C
(1725115858.604912) vcan0 71D#1DF3001B5643
(1725115858.805257) vcan0 537##50B
(1725115859.013125) vcan0 417##447C495243A86745D
(1725115859.213463) vcan0 7B9##7BCE72E0267
(1725115859.414087) vcan0 1CA7CD7D##4C81BDB334810EF11C81BDB33
(1725115859.615902) vcan0 1405537B##7F65A32351DD97C3D
(1725115859.826749) vcan0 59E##5DC3DA63ABB486C64DC3DA63ABB486C64
(1725115860.034683) vcan0 223#124EDF
(1725115860.235435) vcan0 124#B85FA4146B8D
(1725115860.446152) vcan0 2F7#05522057
(1725115860.653095) vcan0 458#
(1725115860.855501) vcan0 1D4D9154#R8
(1725115861.055845) vcan0 1824C547#R8
(1725115861.256739) vcan0 084#9740911796D685
(1725115861.457131) vcan0 1D914277#BB29AF0730A23512
(1725115861.657649) vcan0 43C##54A72B32641D646
(1725115861.858165) vcan0 7D6##60A0884786B329C110A0884786B329C11
(1725115862.058650) vcan0 00621083##6
(1725115862.259512) vcan0 310##6F3F1547D03906553F3F1547D03906553F3F1547D03906553
(1725115862.460300) vcan0 497#E7BE663C2EBD3D
(1725115862.660756) vcan0 1813145D#R5
(1725115862.861412) vcan0 1360BBFE#FC86524E
(1725115863.062939) vcan0 6D6##530CB1F31E19E6B4930CB1F31E19E6B4930CB1F31E19E6B4930CB1F31E19E6B4930CB1F31E19E6B4930CB1F31E19E6B4930CB1F31E19E6B4930CB1F31E19E6B49
(1725115863.263892) vcan0 5EB##64AF4A008
(1725115863.464020) vcan0 0A0AA455#R2
(1725115863.664241) vcan0 066FD0B6#DDAF092E9E8FD642
(1725115863.864386) vcan0 1F9B9EFA#B2CF184DD22D6D1A
(1725115864.066595) vcan0 121D7188##4
(1725115864.267400) vcan0 04C43CFE#R8
(1725115864.467629) vcan0 6C2#R8
(1725115864.668769) vcan0 018DBE3A##6AD71
(1725115864.869272) vcan0 102##68988CB48DFB8
(1725115865.069996) vcan0 096#9F990E4E48282E30
(1725115865.270426) vcan0 3B3#
(1725115865.471456) vcan0 02638796#B0211354CE9D6052
(1725115865.672180) vcan0 0ED64FEC##5
(1725115865.872838) vcan0 137B4DBB#R6
(1725115866.073148) vcan0 4A9##51DE7212F32FD54371DE7212F32FD5437
(1725115866.316900) vcan0 4C1##624D9B02661765530
(1725115866.518505) vcan0 13645ED0#E117E40C
(1725115866.721251) vcan0 0F9FAA36##7486F72
(1725115866.922606) vcan0 1569D48F#42D8
(1725115867.123259) vcan0 0D28F7DF##72535E53ADFF6F2172535E53ADFF6F217
(1725115867.388493) vcan0 63C##47C8D3359599DDA28
(1725115867.589091) vcan0 0D9E0EC6##683BE3B58EAE74E5483BE3B58EAE74E54
(1725115867.798868) vcan0 02D43C94##68FE286347654B82F8FE286347654B82F8FE28634
(1725115867.999799) vcan0 4BE#EC6AE20506645808
(1725115868.199963) vcan0 088C5E9D##465E69335DF
(1725115868.400568) vcan0 7C4#2EF6F07EEA646956
(1725115868.601210) vcan0 340##72691E352BD48
(1725115868.802141) vcan0 10B4F9E1##799321E
(1725115869.002542) vcan0 315##729863819A4051C7429863819
(1725115869.203454) vcan0 0ED19B31##71C48D5
(1725115869.409667) vcan0 1DE012AF#FF961C3C14F97333
(1725115869.629774) vcan0 783##659CAFF58B27DA93F59CAFF58
(1725115869.835763) vcan0 0566EFF7##4E9A8
(1725115870.036811) vcan0 0E806168##733D9DC2201949E7233D9DC2201949E7233D9DC2201949E7233D9DC2201949E7233D9DC2201949E7233D9DC2201949E7233D9DC2201949E7233D9DC2201949E72
(1725115870.237433) vcan0 0A1#5E28B57DCA9E
(1725115870.446387) vcan0 193271CD##61EB7513CE9B907541EB7513CE9B907541EB7513C
(1725115870.646993) vcan0 1AAC1587#R8
(1725115870.893500) vcan0 12EC406E#86EE5354C80AEC4B
(1725115871.098172) vcan0 449#R8
(1725115871.324844) vcan0 12DF6C5E#R8
(1725115871.525447) vcan0 048D2A41##6B2D1
(1725115871.725627) vcan0 66D#R8
(1725115871.926629) vcan0 710##5EF4A
(1725115872.129324) vcan0 06C0109C#R3
(1725115872.330209) vcan0 054DED5F##6DA61D1030DD88672DA61D1030DD88672DA61D103
(1725115872.530848) vcan0 0D6EDDB8#R8
(1725115872.747654) vcan0 1D2#R6
(1725115872.948195) vcan0 52A##5E3
(1725115873.149038) vcan0 439#R2
(1725115873.349766) vcan0 19244A28##56A0B9D10
(1725115873.550673) vcan0 285##5516ACE695FD4EC26516ACE695FD4EC26
(1725115873.765833) vcan0 0DD10AEE##5A38F822425328D
(1725115873.966501) vcan0 19F#83850039CE01E604
(1725115874.167141) vcan0 6F9#R8
(1725115874.379614) vcan0 0EA##64D96632979
(1725115874.579838) vcan0 564##702
(1725115874.780233) vcan0 6E9#9696E9
(1725115874.980391) vcan0 1CE##4CA496F6271718869CA496F62
(1725115875.180867) vcan0 076##7
(1725115875.381640) vcan0 1C3##7D773
(1725115875.582027) vcan0 6F1##7E49AD7653E0D562CE49AD7653E0D562CE49AD765
(1725115875.788762) vcan0 0D00FB22#360D
(1725115875.989694) vcan0 0A3#C366F64A39C78469
(1725115876.189809) vcan0 676#71E7E671404879
(1725115876.390595) vcan0 5BF#R6
(1725115876.605390) vcan0 267#A29BDA513EA6477F
(1725115876.810556) vcan0 571##6
(1725115877.010925) vcan0 0AA##7117D544EE1AD0E
(1725115877.216708) vcan0 12242081##6A920E828
(1725115877.417017) vcan0 0D1053F1#R8
(1725115877.617408) vcan0 01CC693D##6B1
(1725115877.817799) vcan0 06155561##5F03A995F04F1EF57F03A995F04F1EF57F03A995F04F1EF57F03A995F04F1EF57F03A995F04F1EF57F03A995F04F1EF57
(1725115878.023996) vcan0 7EA#9C04E31300
(1725115878.224988) vcan0 70B##64142CD7B1CACC7104142CD7B1CACC710
(1725115878.425167) vcan0 007AD8DC##60FAEE11A85F962490FAEE11A85F962490FAEE11A85F962490FAEE11A85F96249
(1725115878.626178) vcan0 3CD##49DD92A1692A2
(1725115878.826429) vcan0 798#R8
(1725115879.027048) vcan0 321##5C45B047712FE777FC45B047712FE777FC45B0477
(1725115879.227832) vcan0 08AD4330##7247B6525CD47901C247B6525CD47901C247B6525CD47901C
(1725115879.428660) vcan0 1EE#R8
(1725115879.629649) vcan0 032#91EFB672426EF021
(1725115879.830632) vcan0 12BD4374#08D4BE46111DE848
(1725115880.030781) vcan0 1C295CE0#70706079DAEEBD3F
(1725115880.231488) vcan0 306#9F36334ECAE60755
(1725115880.432442) vcan0 34F##70AFE602A7386545D0AFE602A7386545D0AFE602A
(1725115880.633233) vcan0 507#A0E8
(1725115880.834279) vcan0 09140B94#
(1725115881.035234) vcan0 02F##431AEE52B3794554C31AEE52B
(1725115881.235450) vcan0 03B012D2##655202168438310
(1725115881.444252) vcan0 349##4EE91D947E8A9BB72EE91D947
(1725115881.645099) vcan0 1FC#0F1FD12D06404F
(1725115881.854341) vcan0 081690D7##60D34F40F77795F010D34F40F77795F010D34F40F77795F010D34F40F77795F01
(1725115882.086607) vcan0 1E56E09E##69C48383B3C1AA2339C48383B3C1AA2339C48383B
(1725115882.304888) vcan0 4BE#CABEC674F0E2025B
(1725115882.505618) vcan0 275##4B95F
(1725115882.706163) vcan0 164A3FAB#4F87D7
(1725115882.907013) vcan0 06F37C63##6330D475672
(1725115883.107303) vcan0 0DE#R8
(1725115883.308021) vcan0 365#CB2AAE0801743B19
(1725115883.508986) vcan0 0EECAAFB#30526C19C569B303
(1725115883.709273) vcan0 1EFAC0D2##772810E228C20084D72810E228C20084D
(1725115883.909767) vcan0 277#176D237DC681A9
(1725115884.119899) vcan0 08BFC513#6645884646D2067F
(1725115884.320839) vcan0 1CE99902##6E4C53C0D
(1725115884.530916) vcan0 0B776BA4##798
(1725115884.731433) vcan0 55E##4D14140518EBFB871D14140518EBFB871D1414051
(1725115884.935408) vcan0 581#6B
(1725115885.136198) vcan0 1AF2EE6F#24010E41875B1658
(1725115885.337128) vcan0 028432F5#5AC9C2645C780C49
(1725115885.537662) vcan0 2F6#040E2A5DDA286142
(1725115885.737786) vcan0 613##61B304B67AB9BCA201B304B67AB9BCA201B304B67AB9BCA201B304B67AB9BCA201B304B67AB9BCA201B304B67AB9BCA201B304B67AB9BCA201B304B67AB9BCA20
(1725115885.937950) vcan0 12D##7596C1045FF0A7341596C1045
(1725115886.138455) vcan0 78A#R
(1725115886.339444) vcan0 193EE9E6##4DD703521
(1725115886.540467) vcan0 0A5B3C0E##6
(1725115886.741504) vcan0 465#R8
(1725115886.942360) vcan0 0372B2C5#R8
(1725115887.143431) vcan0 0A7#31FDFF1500BD8A5B
(1725115887.343663) vcan0 00CFC5C9#8D8F7212C20E537C
(1725115887.544118) vcan0 1F2BB700##7E4506067DD276100
(1725115887.744886) vcan0 1CEFE1CF##4B301B00C55935553B301B00C55935553B301B00C55935553
(1725115887.945958) vcan0 128D980F#B4D11C5EC93F613E
(1725115888.179799) vcan0 2ED#A0422319A6883C39
(1725115888.380807) vcan0 160C36C8##77D818247FA330C4C7D818247FA330C4C7D818247FA330C4C7D818247FA330C4C
(1725115888.598882) vcan0 03E6388A#D86AA2
(1725115888.804642) vcan0 657##52E01C11E3BD7E9
(1725115889.005172) vcan0 4E1#E00AA26094E64F1B
(1725115889.206176) vcan0 435#1A84C7
(1725115889.407161) vcan0 1ACC6E3E#FBB0124EDFB0EF
(1725115889.613964) vcan0 1AA4866A#R7
(1725115889.814388) vcan0 118EA117#65
(1725115890.015347) vcan0 5EB#9F87EA31191FD4
(1725115890.215725) vcan0 694##48D227E45743972288D227E45743972288D227E45
(1725115890.416417) vcan0 19AD6EED##73369A10208F374373369A10208F37437
(1725115890.617292) vcan0 0EE027A0##46A9CE1789BD8
(1725115890.817592) vcan0 0F77CDE7#CDF92C10B1D8
(1725115891.018211) vcan0 0635156E#5FA7CB3FD32A1909
(1725115891.218871) vcan0 7E7#R8
(1725115891.418997) vcan0 182#R8
(1725115891.619932) vcan0 0E385662##7394D4D0195BFD950394D4D0195BFD950394D4D0195BFD950394D4D0195BFD950
(1725115891.820576) vcan0 1CD540CD#4B67C57937
(1725115892.021462) vcan0 1FF67971#D71E44543E732350
(1725115892.221928) vcan0 5C4#99FD4602232DCE6D
(1725115892.422116) vcan0 352#3EFC9D34519B0A3A
(1725115892.623145) vcan0 416##4AD7A08
(1725115892.823734) vcan0 0C671A3C##4E0D35E717667B42DE0D35E717667B42DE0D35E717667B42D
(1725115893.024009) vcan0 18E2D9E5#17CDDE
(1725115893.240685) vcan0 4E8##699
(1725115893.442022) vcan0 0062B46A##78CB61A
(1725115893.642749) vcan0 188C6A0C##5B23BA0434A
(1725115893.853901) vcan0 1BBC5044##57A
(1725115894.054291) vcan0 65D##696C0260C3D821C2896C0260C3D821C2896C0260C3D821C2896C0260C3D821C28
(1725115894.254607) vcan0 194BA678##4E6F4
(1725115894.455228) vcan0 0EAA7A61##4F4574606FAAA19
(1725115894.657283) vcan0 5D4##5B9DD5779
(1725115894.857894) vcan0 460#BD469B2712789836
(1725115895.066480) vcan0 764##517D7A249DF04
(1725115895.266981) vcan0 197E7162##575784512F831A50575784512F831A50575784512F831A505
(1725115895.467308) vcan0 518##6
(1725115895.667449) vcan0 1B0A2EEF##7
(1725115895.867803) vcan0 0AC##6BF3ED07B66D6AE3B
(1725115896.068755) vcan0 027#R6
(1725115896.269667) vcan0 0F05FC3A#R8
(1725115896.470484) vcan0 677#64667C32
(1725115896.671477) vcan0 3DE#1D4FBD36
(1725115896.872051) vcan0 1BD89B1C##46312E35393E7A9506312E35393E7A950
(1725115897.072803) vcan0 1BE##706F0F5667D30073706F0F5667D30073706F0F5667D30073706F0F5667D30073706F0F5667D30073706F0F5667D30073706F0F5667D30073706F0F5667D300737
(1725115897.279805) vcan0 1372391E#6CC9567D
(1725115897.480373) vcan0 445#D1C53B7174A72A1A
(1725115897.680874) vcan0 057178F9##7E33C74545EDFED77E33C74545EDFED77E33C7454
(1725115897.881705) vcan0 0C40B38F##5DC10E56FAC02FE02DC10E56FAC02FE02DC10E56FAC02FE02
(1725115898.087002) vcan0 108DEEDF##522055C6C4301712422055C6C
(1725115898.287864) vcan0 070#R1
(1725115898.488616) vcan0 441##722A4AC00AD
(1725115898.689465) vcan0 3AA#R2
(1725115898.895837) vcan0 744##5526F211927
(1725115899.096458) vcan0 0CED5C29##41055A424056D
(1725115899.297461) vcan0 15B3FDC7##42CE8794CE9
(1725115899.497895) vcan0 588#2950793123D37B7E
(1725115899.698604) vcan0 082873A7#66D5587E
(1725115899.898780) vcan0 1C580F9E#030F53
(1725115900.099627) vcan0 1A9BF06A##7654F7140BC5FBD
(1725115900.300002) vcan0 138##7D5A1F51648
(1725115900.502995) vcan0 0498EC38##6
(1725115900.703958) vcan0 1CAEE1F8#R8
(1725115900.904380) vcan0 16B12E24##77404367B8B030A75
(1725115901.105104) vcan0 196AD985#0491364D89E8BD48
(1725115901.305643) vcan0 11BEE5F4#R3
(1725115901.506906) vcan0 0F99A1F3##794
(1725115901.707048) vcan0 57F##6
(1725115901.907750) vcan0 7E3#5046480937426F
(1725115902.108500) vcan0 35F#305C4401D35F0750
(1725115902.309316) vcan0 1C1##510878C37C6AAA00D10878C37
(1725115902.515019) vcan0 0ED##4D5FA8955C1503370D5FA8955C1503370
(1725115902.715643) vcan0 0CA13384##4A4240878
(1725115902.920105) vcan0 17E#R8
(1725115903.120305) vcan0 0DBF6AE0##52F6C8A1630B107772F6C8A1630B107772F6C8A1630B10777
(1725115903.320773) vcan0 017E2297##4
(1725115903.522062) vcan0 15E258C5##4BCA55245D5DF6E6DBCA55245
(1725115903.736942) vcan0 1782C79E##709D4
(1725115903.937802) vcan0 01BC9A1C##4382C590AC1BEC4
(1725115904.138418) vcan0 2B4#A863B37731C93962
(1725115904.338910) vcan0 38F#F4
(1725115904.540354) vcan0 177##4D2F1D91255A6
(1725115904.741376) vcan0 635##7A7F1696FF2030D74A7F1696FF2030D74
(1725115904.942045) vcan0 003734F7##7
(1725115905.142838) vcan0 135#FB834A326D2DAB3B
(1725115905.343153) vcan0 20B##71D
(1725115905.544175) vcan0 4C5##4648D93
(1725115905.744630) vcan0 059472A6#
(1725115905.946800) vcan0 475##5A0F004701D2EA026A0F004701D2EA026A0F004701D2EA026A0F004701D2EA026
(1725115906.147747) vcan0 1C71CF90##73092C546
(1725115906.347866) vcan0 034#310F5C692FA4
(1725115906.548711) vcan0 1541710F##40556957C2D9358120556957C2D9358120556957C
(1725115906.749233) vcan0 757##7319D
(1725115906.949739) vcan0 633#DC
(1725115907.149954) vcan0 0D8D9662#R
(1725115907.369545) vcan0 0A249D26#R3
(1725115907.581913) vcan0 345#4B86C51177D25475
(1725115907.782074) vcan0 42E##6F539010433A2
(1725115907.982544) vcan0 0E1885E3##4A6A602031523B111A6A602031523B111A6A60203
(1725115908.183635) vcan0 052##5A83DDA222EA52454
(1725115908.384695) vcan0 181##4D2
(1725115908.584976) vcan0 4EF#271949392064C050
(1725115908.785246) vcan0 168506FB#1044EA04468D
(1725115908.985384) vcan0 06E337CA#R5
(1725115909.190129) vcan0 417#33CD
(1725115909.390903) vcan0 06165B7A##5FFE375012299F028FFE375012299F028FFE375012299F028FFE375012299F028FFE375012299F028FFE375012299F028FFE375012299F028FFE375012299F028
(1725115909.591096) vcan0 084D36D2#R3
(1725115909.842999) vcan0 662#DBD7D350
(1725115910.043922) vcan0 460#1AE8E65F70
(1725115910.244442) vcan0 11F4E1F7##640E5AC4B5B1F994E40E5AC4B5B1F994E
(1725115910.444957) vcan0 148160E9#R2
(1725115910.645392) vcan0 1FCECC53##73EA9F53853B0
(1725115910.845971) vcan0 17B#R5
(1725115911.046145) vcan0 16CD2008#5D936952E3F7A047
(1725115911.246842) vcan0 412##5BBF95D
(1725115911.447641) vcan0 586#EE1CAE68
(1725115911.648705) vcan0 04D1D6E8##7
(1725115911.850920) vcan0 720#630335065E08F0
(1725115912.051518) vcan0 61B##64FEC97647733FE054FEC9764
(1725115912.252434) vcan0 04942319##4D0BA3E7D76B6FD56D0BA3E7D76B6FD56D0BA3E7D76B6FD56D0BA3E7D76B6FD56D0BA3E7D76B6FD56D0BA3E7D76B6FD56D0BA3E7D76B6FD56D0BA3E7D76B6FD56
(1725115912.452839) vcan0 606##4A60F7F11C12FDD44
(1725115912.653512) vcan0 08EDE45A#D964864948019C
(1725115912.858387) vcan0 258##7
(1725115913.059097) vcan0 58B#8CB5212AEEE84865
(1725115913.260135) vcan0 0527BAB6##5A08CF33906A7BF49A08CF339
(1725115913.461126) vcan0 028A43C4#0096636494FEC87F
(1725115913.661870) vcan0 08CFE163#1E8BE65109F14E3A
(1725115913.863385) vcan0 13F9D1D3##6A299C8
(1725115914.075022) vcan0 03DEB9B1##6DCAE464B
(1725115914.277128) vcan0 1BA70F90#B65EA33B1CC5C845
(1725115914.478026) vcan0 17D#F202E0
(1725115914.678676) vcan0 17784573#R1
(1725115914.880082) vcan0 0855718D#0FDDE708ABFC
(1725115915.080387) vcan0 020D416A##7428337420DDBD511428337420DDBD511428337420DDBD511428337420DDBD511428337420DDBD511428337420DDBD511
(1725115915.280950) vcan0 1EE##62EDEC868CA0857022EDEC868CA0857022EDEC868CA0857022EDEC868CA0857022EDEC868CA0857022EDEC868CA085702
(1725115915.481448) vcan0 03A6CA7B#28C59A2831294A1F
(1725115915.681608) vcan0 16E0B910##54A5DB70E02BCC0264A5DB70E02BCC0264A5DB70E02BCC0264A5DB70E02BCC0264A5DB70E02BCC0264A5DB70E02BCC026
(1725115915.882264) vcan0 423#AD12C67E1B
(1725115916.082699) vcan0 1365BB23#BF99C01E32984D3C
(1725115916.282974) vcan0 79F#D2B13257E1CAF27F
(1725115916.483504) vcan0 6FD##66849E5252B95B12B6849E5252B95B12B6849E5252B95B12B6849E5252B95B12B6849E5252B95B12B6849E5252B95B12B6849E5252B95B12B6849E5252B95B12B
(1725115916.686920) vcan0 05830395#R7
(1725115916.889204) vcan0 36B#R8
(1725115917.090238) vcan0 453#463FF8290007FB0E
(1725115917.291323) vcan0 040D1C2F##49B606A
(1725115917.496245) vcan0 3EF##5F333095DC2F59902F333095DC2F59902F333095DC2F59902F333095DC2F59902
(1725115917.696903) vcan0 0D39E89D##73EED7E7705321F733EED7E7705321F733EED7E7705321F733EED7E7705321F733EED7E7705321F733EED7E7705321F733EED7E7705321F733EED7E7705321F73
(1725115917.897195) vcan0 2D8##691A18C00CC60310891A18C00CC603108
(1725115918.114157) vcan0 26A#R7
(1725115918.314594) vcan0 5F6#C409655A
(1725115918.514913) vcan0 3B7#6873055752E47830
(1725115918.715068) vcan0 5BE##6E7CC
(1725115918.917100) vcan0 556#C3CAFC239582D420
(1725115919.117804) vcan0 15310CAD##4ED51B80B3FAEBD15ED51B80B3FAEBD15ED51B80B3FAEBD15ED51B80B3FAEBD15
(1725115919.318355) vcan0 12785045#R8
(1725115919.518713) vcan0 75C##6DE38
(1725115919.719363) vcan0 222##70AA5AD5C8A5DB5
(1725115919.919787) vcan0 04FE7464#6B21237F4B41D86D
(1725115920.120799) vcan0 1D9D3F6F#R2
(1725115920.320923) vcan0 0733339A##5
(1725115920.521753) vcan0 038EF4DD##7C89D75714D77BE00C89D75714D77BE00C89D75714D77BE00C89D75714D77BE00
(1725115920.721988) vcan0 0BD72C62#R8
(1725115920.922299) vcan0 1079C039#A0A4
(1725115921.123188) vcan0 05DD9DC9#35D8B06D35BF00
(1725115921.324100) vcan0 01D7052F##495F12B17
(1725115921.524581) vcan0 0F2E4ACC##5B7
(1725115921.724700) vcan0 078BE4D6#R8
(1725115921.925589) vcan0 19F##6
(1725115922.126313) vcan0 40C#A2634D31
(1725115922.358338) vcan0 1D95108F##55F852722C5
(1725115922.570917) vcan0 052##64F3C2868
(1725115922.771240) vcan0 526##67B5A38
(1725115922.980339) vcan0 104B3014##47054CB
(1725115923.180469) vcan0 1AF7020A#517BC90C4DAE3743
(1725115923.381381) vcan0 1D848F91#C9F90D3433F3D12E
(1725115923.584352) vcan0 040FA580#7A497E
(1725115923.795894) vcan0 725#7C
(1725115923.996553) vcan0 4E6#R8
(1725115924.196837) vcan0 0B8C57EE##52AB7E3465EAC
(1725115924.440466) vcan0 0ED4837B#0C78F31CCCFE9D5B
(1725115924.641248) vcan0 0E272B61#0E47CF422A253502
(1725115924.844037) vcan0 213#53855B548E5B426F
(1725115925.047149) vcan0 1DB##6BBC0D8
(1725115925.252204) vcan0 16871DD4##5C1AE0C609F57B540C1AE0C609F57B540C1AE0C609F57B540C1AE0C609F57B540C1AE0C609F57B540C1AE0C609F57B540
(1725115925.525785) vcan0 438#16E01E7962D3E43E
(1725115925.726082) vcan0 308#550AE85914A33254
(1725115925.926970) vcan0 016E670A#06E4794219
(1725115926.127469) vcan0 0A6E6596##749BED36AEAEAC91E49BED36AEAEAC91E49BED36AEAEAC91E
(1725115926.328080) vcan0 3D3##66DFE8E178F
(1725115926.529007) vcan0 070AA494#R3
(1725115926.743788) vcan0 2FB##49099A66F112B316E9099A66F112B316E9099A66F112B316E9099A66F112B316E
(1725115926.955121) vcan0 053FF57D##7CC99B64BD2FF277FCC99B64B
(1725115927.161003) vcan0 150DEF75#A2C7FC1B7BD38777
(1725115927.361610) vcan0 008BBB41#22D5
(1725115927.562262) vcan0 0DC#R8
(1725115927.762436) vcan0 073729DE#503487513904895B
(1725115927.972016) vcan0 653#C156E332
(1725115928.172837) vcan0 1B1##5
(1725115928.373742) vcan0 18D##40F1491
(1725115928.574343) vcan0 104##780
(1725115928.775299) vcan0 37C#R3
(1725115928.976013) vcan0 174E9548#2B72B13098C9D508
(1725115929.177055) vcan0 15F##58A51D10A21B05F178A51D10A21B05F178A51D10A
(1725115929.386794) vcan0 099DCBD0##72F4D
(1725115929.601369) vcan0 1521FA62##742A07C36710EB31E42A07C36710EB31E42A07C36710EB31E42A07C36710EB31E
(1725115929.802213) vcan0 6B1#5D43FF3F31
(1725115930.003287) vcan0 159#R8
(1725115930.205810) vcan0 2EC#08ECD26C17755750
(1725115930.405965) vcan0 65E#8043246CE93FDA
(1725115930.606921) vcan0 34F#R8
(1725115930.827237) vcan0 194B45B9#
(1725115931.061437) vcan0 1AA40493#C7708D3BF047A37A
(1725115931.262429) vcan0 663##78C5CEE1002CB88748C5CEE1002CB8874
(1725115931.463302) vcan0 278##7FADF34748136E70BFADF34748136E70BFADF34748136E70BFADF34748136E70BFADF34748136E70BFADF34748136E70B
(1725115931.672532) vcan0 02973B8E#7C115A190E7FBB6E
(1725115931.874517) vcan0 014#827042607E58013A
(1725115932.075577) vcan0 06B#R8
(1725115932.276210) vcan0 70E#E1008612D5
(1725115932.476435) vcan0 0CC443BF#DFC353144CA0B25D
(1725115932.681758) vcan0 1DD##628A73173
(1725115932.882556) vcan0 17B7EA2D#25469E3BAAFB
(1725115933.085964) vcan0 2ED#D20EB8656F1BAB00
(1725115933.286478) vcan0 1D8CA1AE#R8
(1725115933.492035) vcan0 070206A9#928428428A078819
(1725115933.692752) vcan0 1611F727#85CC427707BB654A
(1725115933.900510) vcan0 1645A5BF#5AD6C540
(1725115934.101565) vcan0 79F#R5
(1725115934.302231) vcan0 06DE9896##77DBE
(1725115934.503398) vcan0 1981A2BA#FC3766302F25
(1725115934.704419) vcan0 194891E9#F9FE752A7B16713B
(1725115934.904999) vcan0 547##4AC7E45
(1725115935.105447) vcan0 241##68E954A099B400A698E954A099B400A698E954A099B400A69
(1725115935.310033) vcan0 0DDD544A##488B36D6F6C40380C88B36D6F6C40380C88B36D6F
(1725115935.510905) vcan0 01AEE647##7B15E0B
(1725115935.711030) vcan0 033162D3##682C9D049CF9A973382C9D049CF9A973382C9D049CF9A973382C9D049CF9A973382C9D049CF9A973382C9D049CF9A973382C9D049CF9A973382C9D049CF9A9733
(1725115935.911797) vcan0 19177203##78798F125FC708D238798F125
(1725115936.112271) vcan0 3EA#D750D4
(1725115936.313054) vcan0 181#9CE7140E10AF07
(1725115936.513950) vcan0 1C53640F##4AE2DFD4B9817C14BAE2DFD4B9817C14B
(1725115936.714086) vcan0 038DA3AD##5CA1C342C5F029960CA1C342C5F029960CA1C342C5F029960CA1C342C5F029960CA1C342C5F029960CA1C342C5F029960CA1C342C5F029960CA1C342C5F029960
(1725115936.914344) vcan0 535#24EA
(1725115937.115475) vcan0 1D9156D3#BA2C42445AEF8203
(1725115937.316511) vcan0 0C936FEF##5FA77232D
(1725115937.516864) vcan0 00A##6B2BA1260A6178644
(1725115937.717011) vcan0 025#R6
(1725115937.918025) vcan0 079##7
(1725115938.119013) vcan0 120A33D2##711E97F0DF61D1B0E11E97F0D
(1725115938.319485) vcan0 113#EBC9C01DCD152469
(1725115938.519716) vcan0 101813A2##4681F9D169C8B3B1D681F9D169C8B3B1D681F9D169C8B3B1D
(1725115938.720679) vcan0 063B2542##4CB204438F4DF4D
(1725115938.921407) vcan0 1370AA23#034F0C39D536821B
(1725115939.122224) vcan0 251#6DEF8A2E7F73B15F
(1725115939.322994) vcan0 34C##40B
(1725115939.523682) vcan0 124F703C##510
(1725115939.723854) vcan0 633##7FBE07D099BBD4F51FBE07D09
(1725115939.924764) vcan0 059D277E#0C9510314948E15D
(1725115940.125655) vcan0 05A##4EC52B85D5DB74F02EC52B85D5DB74F02EC52B85D5DB74F02
(1725115940.325907) vcan0 0326C0D8#9030852945B0B171
(1725115940.526543) vcan0 523##77FB4
(1725115940.728250) vcan0 1C6#61C5543AD6B3BD04
(1725115940.946751) vcan0 0E1B209F#5A9C79399A019937
(1725115941.308666) vcan0 16DD75C0#83F24A28CC0AEE47
(1725115941.523349) vcan0 0623B555#CD63690C4108
(1725115941.847949) vcan0 50F#33C4773B9FBDC222
(1725115942.152574) vcan0 031FD161##7F19C
(1725115942.377335) vcan0 12591CE1#5B9B8E7642E2
(1725115942.589802) vcan0 1ED#R2
(1725115942.801818) vcan0 52A#R7
(1725115943.086316) vcan0 6F6#FA7956
(1725115943.387454) vcan0 47E#5E8EF9
(1725115943.674579) vcan0 7BE##43530
(1725115943.894780) vcan0 726##498
(1725115944.440667) vcan0 182C7314##4B5A624399A781812B5A624399A781812B5A624399A781812B5A624399A781812B5A624399A781812B5A624399A781812
(1725115944.641473) vcan0 332##5BDBEC146
(1725115944.849419) vcan0 591##47552D6488C3F3D687552D6488C3F3D687552D6488C3F3D687552D6488C3F3D68
(1725115945.050122) vcan0 05CD17B9#540A3E4D18A6C649
(1725115945.319589) vcan0 7C7#R6
(1725115945.532284) vcan0 10C646C1#1614
(1725115945.737269) vcan0 15D2B7EA##412CE110B9F5EF74E12CE110B9F5EF74E12CE110B9F5EF74E12CE110B9F5EF74E12CE110B9F5EF74E12CE110B9F5EF74E
(1725115945.937677) vcan0 0C8#CC
(1725115946.154299) vcan0 53E#R7
(1725115946.354997) vcan0 1852D4D7##4AD3897242CDF9025AD3897242CDF9025AD3897242CDF9025AD3897242CDF9025
(1725115946.555249) vcan0 01FB8569#5BD31A
(1725115946.755517) vcan0 09E425E0##711FE4350F7395B4111FE4350
(1725115946.956310) vcan0 7B4##4C0
(1725115947.156582) vcan0 4C8#525AA3409544EC3E
(1725115947.356736) vcan0 4EA#2B5376
(1725115947.576286) vcan0 09F8A7CE##5F4401A467BE08F4E
(1725115947.777207) vcan0 679#37827715D4
(1725115947.977410) vcan0 052C4126#R4
(1725115948.179859) vcan0 00FC1E68##68C8B482A29F1AB118C8B482A29F1AB118C8B482A
(1725115948.461626) vcan0 40D##440
(1725115948.662483) vcan0 154##55A542C5E7FAC45255A542C5E
(1725115948.863383) vcan0 5E1##6A276FB22D5568176A276FB22D5568176A276FB22D5568176A276FB22D5568176
(1725115949.064058) vcan0 128AC1E6#AE9A590E1D440208
(1725115949.274971) vcan0 4CB##4D656DC
(1725115949.475943) vcan0 082##6659333160E7C3F1165933316
(1725115949.676366) vcan0 017##46497630E58DB9C2A6497630E58DB9C2A6497630E
(1725115949.876498) vcan0 1EA##6C401101A44E69326C401101A44E69326C401101A44E69326
(1725115950.076892) vcan0 44E#7935F029F0
(1725115950.277606) vcan0 242##64810BE47F004
(1725115950.478093) vcan0 09DB076A##4360EC45D415EB75D360EC45D415EB75D360EC45D
(1725115950.678244) vcan0 2B0#R3
(1725115950.879032) vcan0 155BB558#ED229B37BC4CBF03
(1725115951.079523) vcan0 0A59B167#31369E092BB369
(1725115951.280237) vcan0 0450175D##611C1B549D74C400E11C1B549
(1725115951.481174) vcan0 1732140B#3F8712365424F05E
(1725115951.682200) vcan0 032##6C5CDE24B681E6C44C5CDE24B681E6C44C5CDE24B681E6C44C5CDE24B681E6C44C5CDE24B681E6C44C5CDE24B681E6C44
(1725115951.886211) vcan0 0C52B162##7C2D8304B4885620E
(1725115952.086775) vcan0 394##7
(1725115952.287394) vcan0 192C7EE0#R8
(1725115952.487526) vcan0 2EF#8DEAF31E00EC1410
(1725115952.688393) vcan0 4F7##55FD0592B36B485625FD0592B36B485625FD0592B36B48562
(1725115952.888877) vcan0 469#1E50022F2F5A5323
(1725115953.089805) vcan0 1584DA1E#EA
(1725115953.293153) vcan0 0DCE2B18#R4
(1725115953.499293) vcan0 094452D6#DE94A1
(1725115953.699898) vcan0 7F2#D3A8DA357FAA1264
(1725115953.900893) vcan0 219##6D6CFA33A7992
(1725115954.101244) vcan0 00DAF436#1650
(1725115954.301911) vcan0 09D332E7#A284F9
(1725115954.502089) vcan0 1F02157B##4C827EC47F5E0C840C827EC47
(1725115954.704097) vcan0 4BD#R8
(1725115954.904300) vcan0 614##570D03D6AE786622D70D03D6AE786622D70D03D6AE786622D70D03D6AE786622D
(1725115955.104525) vcan0 1D9AA03A#83
(1725115955.304963) vcan0 730##65CFA277D46F717
(1725115955.507077) vcan0 36E#R8
(1725115955.707391) vcan0 14709863##7E96231592BC05C7CE96231592BC05C7CE96231592BC05C7C
(1725115955.908044) vcan0 16043D45#4C224D79F53ECC5E
(1725115956.108517) vcan0 6F2#11782D0462DF804A
(1725115956.308695) vcan0 41E#F1EC4E3CA2D74D67
(1725115956.509719) vcan0 06B##7F553
(1725115956.709809) vcan0 0269FC92#R6
(1725115956.915850) vcan0 146##5D23B0615
(1725115957.116092) vcan0 04462A53##718216760A0
(1725115957.360177) vcan0 79C##673CD
(1725115957.580281) vcan0 07637163#92BA7250555EB223
(1725115957.781289) vcan0 240##7
(1725115957.982972) vcan0 059#BE1FE24EA0A0F0
(1725115958.184011) vcan0 15714E05#6D1AA042D78977
(1725115958.384963) vcan0 69D##58B175C00B55797448B175C00B55797448B175C00
(1725115958.585642) vcan0 0DB4C7F5##65D
(1725115958.792991) vcan0 752##7CA027B58E451F142CA027B58E451F142CA027B58E451F142
(1725115958.993594) vcan0 10CB0E38#E18BA04B
(1725115959.229781) vcan0 56A##621F5
(1725115959.477963) vcan0 0814B38A##45AAB401AF8CDB46A5AAB401AF8CDB46A5AAB401AF8CDB46A5AAB401AF8CDB46A
(1725115959.680719) vcan0 0C105170#3021F120FC
(1725115959.881534) vcan0 1FB##69B
(1725115960.097225) vcan0 299##626CD47446485611726CD47446485611726CD4744
(1725115960.297353) vcan0 00BF3247##7B463970028BE5F0CB463970028BE5F0CB463970028BE5F0C
(1725115960.497962) vcan0 1E955E0E#E8C4
(1725115960.698672) vcan0 0D75FE5B##6E8ABCE49B5A9B627E8ABCE49B5A9B627
(1725115960.899763) vcan0 0ED##447D9EB4A1D
(1725115961.113796) vcan0 1E683591#1395547A2CE9D515
(1725115961.314951) vcan0 05D75B6D#1CF0866B93
(1725115961.515198) vcan0 186057AB#C6844A145FBBF758
(1725115961.715789) vcan0 0DB##4954C0647C3753B46954C0647C3753B46954C0647C3753B46954C0647C3753B46
(1725115961.916893) vcan0 09191550#R8
(1725115962.122992) vcan0 0E234809##4F9182F0F5021
(1725115962.349669) vcan0 0F627D1A##45C
(1725115962.553210) vcan0 17B14ACD#D2AB0942E93A3803
(1725115962.776480) vcan0 0E279CFC#07F18B04
(1725115962.977516) vcan0 20A#61671D6C9F56D042
(1725115963.200277) vcan0 0CE7D3FE#7FBC1D365547043F
(1725115963.401256) vcan0 1185DA53##54D07BB6D4CF3B4404D07BB6D4CF3B4404D07BB6D4CF3B4404D07BB6D4CF3B4404D07BB6D4CF3B4404D07BB6D4CF3B440
(1725115963.608718) vcan0 391##78F07AE3DED8B
(1725115963.814104) vcan0 79C#2EF05C496FF3046D
(1725115964.101418) vcan0 030A865C##437A42C066377966737A42C066377966737A42C06
(1725115964.394313) vcan0 1ABCF22B#CA84CF798D59DA26
(1725115964.606182) vcan0 52B#FB431A12AB895912
(1725115964.871316) vcan0 10EB7123#3F04EE5F7078A65E
(1725115965.222869) vcan0 4EE##6B0
(1725115965.422959) vcan0 244##7A8F6444F733AD777A8F6444F733AD777
(1725115965.623171) vcan0 19D9084B#F487FF3683AC0500
(1725115965.872267) vcan0 221##4A0B9D825EBBE6D0EA0B9D825EBBE6D0EA0B9D825EBBE6D0EA0B9D825EBBE6D0EA0B9D825EBBE6D0EA0B9D825EBBE6D0E
(1725115966.141174) vcan0 0C0991AC##6C7255F15A8D523
(1725115966.350276) vcan0 2A8##4C079E240E79E1368C079E240E79E1368C079E240
(1725115966.551220) vcan0 0576D10A##63D53F445BA
(1725115966.751888) vcan0 0DDD732B##46D14D960D469223D6D14D960D469223D6D14D960D469223D6D14D960D469223D6D14D960D469223D6D14D960D469223D6D14D960D469223D6D14D960D469223D
(1725115966.957404) vcan0 3F6##441DE551BEA93AB3341DE551BEA93AB3341DE551BEA93AB3341DE551BEA93AB3341DE551BEA93AB3341DE551BEA93AB3341DE551BEA93AB3341DE551BEA93AB33
(1725115967.158256) vcan0 673##451BDC37113D0A60351BDC37113D0A60351BDC371
(1725115967.358541) vcan0 58C##5
(1725115967.559030) vcan0 6CF#337EE37C8FA8467F
(1725115967.759426) vcan0 0A993D6E##4B8683107AB908D70B8683107
(1725115967.960267) vcan0 10B#53F57C27788D15
(1725115968.161291) vcan0 07F112C5##6CADF885206F14603CADF885206F14603CADF885206F14603CADF885206F14603CADF885206F14603CADF885206F14603
(1725115968.361836) vcan0 66D#R8
(1725115968.562706) vcan0 096E885A#4D396C3467A1CF2A
(1725115968.762935) vcan0 0B5##799C25328E8EE23
(1725115968.963571) vcan0 77C##560F2372D3540
(1725115969.163803) vcan0 4B4##4
(1725115969.364975) vcan0 14432E84#R8
(1725115969.576982) vcan0 580##44B05E27FE308B64F4B05E27FE308B64F4B05E27F
(1725115969.777976) vcan0 049DDCD8#R8
(1725115969.980657) vcan0 11C08662#DC02284DFB48147A
(1725115970.191737) vcan0 3A2##419A22B64026EDA62
(1725115970.392695) vcan0 1E765F1B#ED199A45F41F
(1725115970.592936) vcan0 016A60A6#R8
(1725115970.793155) vcan0 75B##582699142A77CBC5C82699142A77CBC5C82699142A77CBC5C82699142A77CBC5C82699142A77CBC5C82699142A77CBC5C
(1725115970.993783) vcan0 0E3531FB#6FE8D559BF6B8728
(1725115971.214533) vcan0 1DCA1B14#7F
(1725115971.414693) vcan0 101D6C42#R2
(1725115971.614914) vcan0 139CBC42#4B7A61122FD6
(1725115971.815619) vcan0 709##6E2DB5A559260
(1725115972.015999) vcan0 0A8#F2C5983F2AA2270A
(1725115972.224754) vcan0 004A1D23#14AEE76D9205
(1725115972.447400) vcan0 084C1DB9#07322C3B3914
(1725115972.647560) vcan0 524##529D87043B9C8451F29D87043B9C8451F29D87043
(1725115972.858524) vcan0 7BE##54CFC2055095A41794CFC2055095A41794CFC2055
(1725115973.058690) vcan0 1B6##60092
(1725115973.277672) vcan0 155809A4#
(1725115973.478573) vcan0 1D7ECE28##69114823E3C7C660B9114823E3C7C660B
(1725115973.678766) vcan0 476#F31245677D86
(1725115973.880906) vcan0 0A215189##7AA
(1725115974.081018) vcan0 580##6
(1725115974.282192) vcan0 480##68CA4
(1725115974.485372) vcan0 631##65A47BA66C4
(1725115974.685482) vcan0 0CDF87C5##675F49A2E569C614B75F49A2E569C614B75F49A2E569C614B
(1725115974.896456) vcan0 1DF5E6C2#1FA4874AB5F93A05
(1725115975.096696) vcan0 24E##6EC6A756FF880FB7BEC6A756FF880FB7BEC6A756FF880FB7BEC6A756FF880FB7BEC6A756FF880FB7BEC6A756FF880FB7B
(1725115975.302703) vcan0 18D62746#617E60319C681915
(1725115975.511662) vcan0 1DB#C63BC10B6886F17A
(1725115975.711850) vcan0 4E0#R8
(1725115975.912015) vcan0 37D##7
(1725115976.112179) vcan0 473##523414160
(1725115976.312340) vcan0 059BB86E#
(1725115976.512566) vcan0 099#R
(1725115976.728388) vcan0 294#R6
(1725115976.940269) vcan0 3F5##7D7BBC84BB657001ED7BBC84BB657001E
(1725115977.140542) vcan0 11A84835#75D3F9
(1725115977.341574) vcan0 3CB##5DA8141
(1725115977.551575) vcan0 244##5666AA46CEC5DEE7F666AA46CEC5DEE7F666AA46CEC5DEE7F666AA46CEC5DEE7F
(1725115977.752708) vcan0 1780063F##5578B48268F
(1725115977.956786) vcan0 09493E94##755561C3B
(1725115978.300588) vcan0 593##7B9
(1725115978.545670) vcan0 42E#R
(1725115978.751733) vcan0 0F1#1433767ACCBAB676
(1725115979.003677) vcan0 183A829A#R
(1725115979.324918) vcan0 671#R8
(1725115979.571996) vcan0 15A53700##7F386C73B568DC110F386C73B568DC110F386C73B568DC110F386C73B568DC110
(1725115979.772156) vcan0 04DD4871#2B328A762AFD9C2E
(1725115979.990460) vcan0 4C3#F51DDB268E726F28
(1725115980.204260) vcan0 1637CA15##6
(1725115980.420086) vcan0 4C7#5CEBBB
(1725115980.632944) vcan0 658#036026
(1725115980.833117) vcan0 3D2#R8
(1725115981.033697) vcan0 14BE1263##719AF584D8E4448
(1725115981.234860) vcan0 07CD836D#BA
(1725115981.453717) vcan0 125F4AB5##75FCFEA251F8F4845
(1725115981.655775) vcan0 038635AB#65E8763E072142
(1725115981.855990) vcan0 0C3E5529#5C17E9402CB56456
(1725115982.064413) vcan0 219#R8
(1725115982.268467) vcan0 241#FBA6DD075A
(1725115982.469009) vcan0 1E23A75D##4744D6F0B1779A80A
(1725115982.673260) vcan0 154##6A271793AB3406050A271793AB3406050A271793AB3406050
(1725115982.883533) vcan0 244#D3564505A9C27E4E
(1725115983.086742) vcan0 53C##5C686
(1725115983.292301) vcan0 5FE##7FD
(1725115983.554497) vcan0 1C2#7953
(1725115983.755556) vcan0 79D#745C8323113D6813
(1725115983.974466) vcan0 191C629F#FEE4701C41
(1725115984.185073) vcan0 1EC137EA#R5
(1725115984.385810) vcan0 4DE##70089D96CA48382020089D96C
(1725115984.586170) vcan0 1DFB55FF#4397A1
(1725115984.835565) vcan0 0B319327##4050C1613A0E6517E050C1613A0E6517E050C1613A0E6517E050C1613A0E6517E050C1613A0E6517E050C1613A0E6517E
(1725115985.069644) vcan0 3B2#R8
(1725115985.384881) vcan0 060C2FC8##7B4C19057C6
(1725115985.585588) vcan0 05CEB0CD##5
(1725115985.848671) vcan0 1598B6BB#6687451D
(1725115986.049223) vcan0 7F7#6BA8C2563AFFCA6B
(1725115986.337802) vcan0 0C689E1F##575
(1725115986.553445) vcan0 5F1##43F4F997B887C
(1725115986.754670) vcan0 154C628E#R
(1725115986.954785) vcan0 7C9##5
(1725115987.154997) vcan0 133##57A
(1725115987.355317) vcan0 542#
(1725115987.555896) vcan0 1763DB3E##62C6A017AB3E29C5F2C6A017AB3E29C5F2C6A017AB3E29C5F2C6A017AB3E29C5F
(1725115987.756551) vcan0 0F4FE32E#C83373236E
(1725115987.963744) vcan0 05C741C5#7D79412187126414
(1725115988.164526) vcan0 0A893A93##750
(1725115988.364708) vcan0 1A5D79A6##5B88B671C20783C3FB88B671C20783C3FB88B671C20783C3F
(1725115988.564880) vcan0 066A2F84#B57A
(1725115988.765072) vcan0 280#DD260F2EADBC2A66
(1725115988.970163) vcan0 025AACCF#R8
(1725115989.170380) vcan0 1C0A44CF#466799404CBE4B5D
(1725115989.370559) vcan0 0DAC2085##434AFD862D5AE6A6D34AFD862D5AE6A6D34AFD862D5AE6A6D34AFD862D5AE6A6D34AFD862D5AE6A6D34AFD862D5AE6A6D34AFD862D5AE6A6D34AFD862D5AE6A6D
(1725115989.570726) vcan0 6DB#R8
(1725115989.770919) vcan0 13A914E9##6FEADE2379E8FCD7C
(1725115989.971594) vcan0 1124F90E##46D3F9A53EC1F341F6D3F9A53EC1F341F6D3F9A53EC1F341F6D3F9A53EC1F341F6D3F9A53EC1F341F6D3F9A53EC1F341F6D3F9A53EC1F341F6D3F9A53EC1F341F
(1725115990.172142) vcan0 66A#A73E9C240CDE083D
(1725115990.373298) vcan0 0F1##4AECFF17237789925AECFF17237789925AECFF172
(1725115990.573525) vcan0 12EB0491##506DA333EC6B3C31506DA333EC6B3C31506DA333EC6B3C315
(1725115990.782518) vcan0 33E##40D
(1725115990.982634) vcan0 0F7D10A9#4D7F0C5CA7BE5F07
(1725115991.182863) vcan0 07687A70#A8144436DD
(1725115991.383020) vcan0 0565B374#5CA447391CF201
(1725115991.583218) vcan0 00A451AE##42E21946C5C2196732E21946C5C2196732E21946C5C2196732E21946C5C219673
(1725115991.784250) vcan0 255#0014E1075BDC2601
(1725115991.984896) vcan0 392#5564B849A0CB0971
(1725115992.185194) vcan0 0B43518A##686289509D7D04F4786289509
(1725115992.385358) vcan0 310#A5526B40B86F260D
(1725115992.590746) vcan0 18242A47#6D253360A3CE6B11
(1725115992.791622) vcan0 13B423C0#5618
(1725115992.992777) vcan0 39A##79C67272C
(1725115993.193498) vcan0 150#391BA100A6A52432
(1725115993.393682) vcan0 19B6A0D5#
(1725115993.596212) vcan0 606#50137073AB98800A
(1725115993.817950) vcan0 075#51B7
(1725115994.023029) vcan0 49A##5E8B120
(1725115994.224014) vcan0 396##4D6ED9514335BEE37D6ED9514335BEE37
(1725115994.424240) vcan0 176#5123D5
(1725115994.627915) vcan0 1C7CF21E#5A39E76F34
(1725115994.831200) vcan0 162#4CBBC930B2140F48
(1725115995.031305) vcan0 770##5D83EE615C106FF
(1725115995.231801) vcan0 06E##6ADCCAA3356821710ADCCAA3356821710ADCCAA33
(1725115995.437396) vcan0 0505733F##6D530970C15619B59D530970C15619B59D530970C15619B59D530970C15619B59
(1725115995.637505) vcan0 0F9#A36D27744B74A371
(1725115995.837670) vcan0 7CD#R8
(1725115996.037846) vcan0 3A1##7D8E68C55EDBEE126D8E68C55
(1725115996.246937) vcan0 08CE62BE##6622C763897A1B41E622C763897A1B41E622C763897A1B41E622C763897A1B41E
(1725115996.448944) vcan0 76C##779E86C1919
(1725115996.649198) vcan0 0C4#R8
(1725115996.850090) vcan0 369##7FAAAED
(1725115997.050278) vcan0 236##747FD0207F7B6964B47FD0207
(1725115997.250383) vcan0 0E5#892CF724BEE75B09
(1725115997.452158) vcan0 3C4##5E38790672758A930E38790672758A930E38790672758A930
(1725115997.652300) vcan0 188F9D02##4195E8A
(1725115997.852521) vcan0 124D5275#
(1725115998.063084) vcan0 1B8A6373#R7
(1725115998.275483) vcan0 0668B14A##40DFA2E
(1725115998.481779) vcan0 40D##633CAD7749768F0
(1725115998.682683) vcan0 1D6843B9#B2E1C03C9CCBF844
(1725115998.890410) vcan0 5C5##416DC8442DE2B2A4716DC8442DE2B2A4716DC8442DE2B2A4716DC8442DE2B2A4716DC8442DE2B2A4716DC8442DE2B2A47
(1725115999.091310) vcan0 7C3##65A145B
(1725115999.292445) vcan0 0BA20C33#3833C34FA0262859
(1725115999.492791) vcan0 1BB5D46C#4D25BB0979CEE40A
(1725115999.695855) vcan0 4E7#R6
(1725115999.909627) vcan0 18CDCD29#R3
(1725116000.109774) vcan0 3FB#0E
(1725116000.310507) vcan0 012A6528##7D326D043
(1725116000.510657) vcan0 043661E4#R6
(1725116000.714882) vcan0 582##54084E06ACF0AF53B4084E06A
(1725116000.942858) vcan0 2BD##48842720EB14014
(1725116001.142992) vcan0 1040B5A6#A581B9391FBD3258
(1725116001.343156) vcan0 015##557399F3723077C1F57399F3723077C1F
(1725116001.543377) vcan0 1D6#00816F76A908C865
(1725116001.743522) vcan0 39D##7846B537976F4E06F846B537976F4E06F846B537976F4E06F846B537976F4E06F846B537976F4E06F846B537976F4E06F
(1725116001.943823) vcan0 04A317DA##63469A70D1B9C830F3469A70D
(1725116002.143921) vcan0 136#7F24E956BEE3AD76
(1725116002.344076) vcan0 017E6351#63F5566C
(1725116002.544534) vcan0 00C7B219##49E07137670EB66389E07137670EB66389E071376
(1725116002.745238) vcan0 0CA##77AE83069CA09B8
(1725116002.946817) vcan0 649#7E40252ACD39B009
(1725116003.154927) vcan0 029##7D7B383765DA9C475
(1725116003.355043) vcan0 149398A0##49B9437
(1725116003.555181) vcan0 424##4
(1725116003.758160) vcan0 63A##571
(1725116003.959109) vcan0 19CBF6A0#58DC
(1725116004.159287) vcan0 249#D49D59
(1725116004.365431) vcan0 1CC277B3#D9
(1725116004.565577) vcan0 69C##7E226BF1837BB6B6EE226BF1837BB6B6E
(1725116004.765749) vcan0 534##6BAA15120EA1C0A49BAA15120EA1C0A49BAA15120
(1725116004.965948) vcan0 721##483CCE61F
(1725116005.166358) vcan0 395#R2
(1725116005.366826) vcan0 1784C80B#B0A4E869DF65
(1725116005.567352) vcan0 3E1##7EF8F
(1725116005.768113) vcan0 19F76C3D#R6
(1725116005.968242) vcan0 0B174E91#E8DD07
(1725116006.168448) vcan0 6CB##76240F60C4E530A0B6240F60C4E530A0B6240F60C4E530A0B6240F60C4E530A0B
(1725116006.368597) vcan0 018FA15F##732D145
(1725116006.568816) vcan0 17D4C87F#07512E4B2F6DBD01
(1725116006.785476) vcan0 605#7A
(1725116006.985574) vcan0 192DC597##622A9
(1725116007.185691) vcan0 00734FAF#
(1725116007.386959) vcan0 2E3#R3
(1725116007.588968) vcan0 09102229#9536CC64
(1725116007.789198) vcan0 566##4AA36354B6D6EC71DAA36354B6D6EC71D
(1725116007.989319) vcan0 17DB1592#1A2298
(1725116008.189558) vcan0 0797DFE6##599047666
(1725116008.389646) vcan0 17C941EB##4F40B4467906740
(1725116008.590738) vcan0 0EB2DDB0##7B2BAA8
(1725116008.791406) vcan0 264#R3
(1725116008.992266) vcan0 7FF##73818A07FA9FE4E5E3818A07FA9FE4E5E3818A07FA9FE4E5E3818A07FA9FE4E5E3818A07FA9FE4E5E3818A07FA9FE4E5E3818A07FA9FE4E5E3818A07FA9FE4E5E
(1725116009.192453) vcan0 141#3FA1B23A5C632010
(1725116009.392598) vcan0 028BFBA7#ED7D
(1725116009.592820) vcan0 071##601A5627465B41D2401A5627465B41D2401A56274
(1725116009.797389) vcan0 1E6CAB51##62E3CF12D03
(1725116009.997864) vcan0 197239E7##7F241FF0F44441E
(1725116010.204919) vcan0 650#BF373C
(1725116010.405454) vcan0 48C#281FB155CB5D6D54
(1725116010.615320) vcan0 571##5689E
(1725116010.838873) vcan0 0E496AB2##4
(1725116011.039074) vcan0 0AD2459A#4A726032
(1725116011.239408) vcan0 33A#6F4995612C8D3F3F
(1725116011.439952) vcan0 0A1A6AD0##4360C8C218FA2566C360C8C218FA2566C360C8C218FA2566C360C8C218FA2566C
(1725116011.640713) vcan0 01131723#CFD9656A4B36C456
(1725116011.852979) vcan0 0B2334F5##5591678115DD39863591678115DD39863591678115DD39863591678115DD39863
(1725116012.053202) vcan0 00C#R8
(1725116012.258774) vcan0 1D5BCB21##4C708A7156B
(1725116012.460389) vcan0 15D529CF#FD8E05483F
(1725116012.660638) vcan0 6F0##44F41F02A279BE5094F41F02A279BE5094F41F02A279BE5094F41F02A279BE5094F41F02A279BE5094F41F02A279BE5094F41F02A279BE5094F41F02A279BE509
(1725116012.861053) vcan0 354##7BADFEC5324FD1E6FBADFEC5324FD1E6F
(1725116013.074889) vcan0 0E6B9CA1#52247E45FAB2E33F
(1725116013.287645) vcan0 07D7E36E##58643BD2F5ACEA3
(1725116013.487802) vcan0 149##477809D40119AF27977809D40119AF27977809D40
(1725116013.695901) vcan0 166D53C4##5
(1725116013.899619) vcan0 0FF4755E##72E15
(1725116014.105145) vcan0 169295CD#R2
(1725116014.413438) vcan0 7B8##53F09FF080BCCE542
(1725116014.615222) vcan0 6B6##429E8254A3D52971629E8254A
(1725116014.815464) vcan0 71B#4F1761739297
(1725116015.032743) vcan0 061CEE36##578419D04C34DD5
(1725116015.233481) vcan0 097#R1
(1725116015.434608) vcan0 1AB34CA3##7D1534C
(1725116015.636752) vcan0 2F7##642AB836E3634087A42AB836E3634087A42AB836E3634087A42AB836E3634087A42AB836E3634087A42AB836E3634087A42AB836E3634087A42AB836E3634087A
(1725116015.836939) vcan0 064##6032F69018E587831032F69018E587831032F69018E587831032F69018E587831
(1725116016.038153) vcan0 4D7##6B0785C7227C42B25B0785C72
(1725116016.239104) vcan0 648#R8
(1725116016.453266) vcan0 0AB#42C3E76A76007C
(1725116016.669999) vcan0 0D963D11#R8
(1725116016.923223) vcan0 2CA#5F0C53040CA65A3B
(1725116017.125400) vcan0 1AFE8BE9##7FC
(1725116017.436757) vcan0 134FC826##7A8DE5473
(1725116017.636955) vcan0 00D8E5E4##648DEA67E77D81E1348DEA67E77D81E1348DEA67E77D81E1348DEA67E77D81E1348DEA67E77D81E1348DEA67E77D81E1348DEA67E77D81E1348DEA67E77D81E13
(1725116017.924685) vcan0 01C4DE69##7361F4C
(1725116018.126849) vcan0 1C715D54#R8
(1725116018.339717) vcan0 792##7772B116BF14B2537772B116BF14B2537772B116BF14B2537772B116BF14B2537772B116BF14B2537772B116BF14B2537772B116BF14B2537772B116BF14B2537
(1725116018.560428) vcan0 06051B86##64C768E3E834EDB414C768E3E834EDB41
(1725116018.925901) vcan0 12B3E54B##58BFABD3CF4C308068BFABD3C
(1725116019.129438) vcan0 676#9F8EB507BE04C32E
(1725116019.331583) vcan0 57E#731B9A62B51CAF
(1725116019.536596) vcan0 50C##48E637777BE9BF40C8E637777
(1725116019.774038) vcan0 019CD32C#DC
(1725116020.021929) vcan0 2B8##41DFF0F4904C9C67B1DFF0F4904C9C67B
(1725116020.223066) vcan0 179B91E4#
(1725116020.423209) vcan0 6D7#1C1C655B76
(1725116020.632082) vcan0 15659E6C##4CB9AC043DF
(1725116020.927938) vcan0 79D##6B3F9786A2C836C58B3F9786A2C836C58B3F9786A
(1725116021.133859) vcan0 2C0##6FBE56A6F9D25A04C
(1725116021.344418) vcan0 53D#R5
(1725116021.586484) vcan0 0DF8D7D3#R8
(1725116021.929293) vcan0 089D61ED#
(1725116022.139239) vcan0 130A9536##56CF632150130
(1725116022.397687) vcan0 616##541451774C96F043D41451774C96F043D41451774C96F043D41451774C96F043D41451774C96F043D41451774C96F043D
(1725116022.599730) vcan0 7EB##62329360AE63526132329360A
(1725116022.803296) vcan0 61F##57B40C63E
(1725116023.024415) vcan0 1D5##7BDEDE60F7E717F58
(1725116023.231790) vcan0 0B43186A#424A464CFDF5146B
(1725116023.432903) vcan0 5B9##5EC6D87
(1725116023.639386) vcan0 442#D20AAB4C84890604
(1725116023.856678) vcan0 59D#8D5CE061C0060E27
(1725116024.060282) vcan0 4B4##57A5265342F6594557A5265342F6594557A5265342F6594557A5265342F6594557A5265342F6594557A5265342F6594557A5265342F6594557A5265342F659455
(1725116024.265445) vcan0 1F8#3C37A47A
(1725116024.465596) vcan0 0AA7537D##4
(1725116024.665797) vcan0 18B57D65#R8
(1725116024.866479) vcan0 1692E484#R4
(1725116025.066878) vcan0 3DC#R3
(1725116025.333198) vcan0 0DDCA1DD##492581F1F57F4416292581F1F57F4416292581F1F57F4416292581F1F57F4416292581F1F57F4416292581F1F57F44162
(1725116025.533672) vcan0 0172CAB6#
(1725116025.737237) vcan0 069779D5#
(1725116025.937368) vcan0 08B86C42##7A86E69099295604AA86E6909
(1725116026.138145) vcan0 645##60E3E4C311E58
(1725116026.338789) vcan0 1C7EF726#60364704AE89736F
(1725116026.539245) vcan0 214#8231AB4FA6628A0A
(1725116026.742304) vcan0 09CF6BD0##433B61D3F228DED5D33B61D3F228DED5D33B61D3F228DED5D33B61D3F228DED5D
(1725116026.943070) vcan0 0BD9DC38##7BF84D20E5EAA09
(1725116027.143704) vcan0 0C7E77EF##6
(1725116027.344305) vcan0 1BB5DE5E##4492616256D1C022D492616256D1C022D492616256D1C022D
(1725116027.544568) vcan0 7B6##6F5A8E3
(1725116027.744748) vcan0 0EFF0559#CDC84436DC36AA1E
(1725116027.945533) vcan0 15D6E8B0#2E60810FE39EF474
(1725116028.145842) vcan0 77E##7C536EC2A3D146866C536EC2A3D146866C536EC2A
(1725116028.346655) vcan0 099EE380#R8
(1725116028.548018) vcan0 0FBCE84D##4A017
(1725116028.748345) vcan0 046A149A##7C3C16D6D8FBD4D48C3C16D6D8FBD4D48C3C16D6D8FBD4D48C3C16D6D8FBD4D48
(1725116028.949291) vcan0 704#8F34A364D127A73C
(1725116029.149968) vcan0 08276760#71
(1725116029.350157) vcan0 43F#802A41480403C40F
(1725116029.550693) vcan0 7F9##677F78C48
(1725116029.750858) vcan0 23A#
(1725116029.951321) vcan0 0F6ED9DA##544215E089D
(1725116030.151701) vcan0 5A8#ED
(1725116030.352372) vcan0 093710B2##4F432643223ADA7
(1725116030.552625) vcan0 259##53340
(1725116030.752783) vcan0 37E##5EA62
(1725116030.954300) vcan0 4D2##5465D55577D28C055465D55577D28C055465D55577D28C055465D55577D28C055465D55577D28C055465D55577D28C055465D55577D28C055465D55577D28C055
(1725116031.156143) vcan0 03D##67F25293A8101F7
(1725116031.356434) vcan0 183#95984A6571905C09
(1725116031.556698) vcan0 308#F8627B
(1725116031.757170) vcan0 0FF64C1E##5A9C7BA66528C
(1725116031.958287) vcan0 02FE4410##7
(1725116032.158392) vcan0 119A22E7#F4E743722E80EF48
(1725116032.359179) vcan0 6FE##6A1CED13D7D9CF012A1CED13D7D9CF012A1CED13D
(1725116032.559919) vcan0 1FDD6C95#16
(1725116032.765951) vcan0 277##49547FD
(1725116032.976059) vcan0 5DC#867E5973865DF305
(1725116033.176796) vcan0 06DD5BB5##7AF9D571DB695
(1725116033.377856) vcan0 074#5DEC78246960970A
(1725116033.578666) vcan0 0A7#3799A45B4887ED
(1725116033.778878) vcan0 1023FB24#E6895C5F3BE4A162
(1725116033.991379) vcan0 058#3BB9
(1725116034.196876) vcan0 0C39676B#AE75045DF1E5927F
(1725116034.398179) vcan0 38E#E60CE1043D79
(1725116034.599303) vcan0 576#R2
(1725116034.821711) vcan0 164BC8C6##68229EE48FE61F0118229EE48FE61F0118229EE48
(1725116035.022068) vcan0 567#A175
(1725116035.241398) vcan0 1DB76EA9#R5
(1725116035.454011) vcan0 1CEAEC30##45DDD1F7DDF61EF795DDD1F7DDF61EF795DDD1F7DDF61EF795DDD1F7DDF61EF795DDD1F7DDF61EF795DDD1F7DDF61EF795DDD1F7DDF61EF795DDD1F7DDF61EF79
(1725116035.665983) vcan0 0AD#E6B63F1A9355F05D
(1725116035.878018) vcan0 643##65CA8D83C3D1E725C5CA8D83C
(1725116036.085956) vcan0 0267FA77#R4
(1725116036.294454) vcan0 11D##424
(1725116036.542337) vcan0 0B78E782##754408E399137F81B
(1725116036.749028) vcan0 7E7#9C04
(1725116036.952430) vcan0 05E879DC#0E
(1725116037.155792) vcan0 1B8#8E3639191522
(1725116037.390197) vcan0 0891236B##447C49A26C40AF57F47C49A26C40AF57F47C49A26C40AF57F
(1725116037.598803) vcan0 549##5E8
(1725116037.799717) vcan0 297#
(1725116038.012124) vcan0 062A1554#43F65F
(1725116038.222768) vcan0 05327BE4##5095E3B21F23E4117095E3B21F23E4117095E3B21F23E4117095E3B21F23E4117
(1725116038.426331) vcan0 18D#9683BE351B20464F
(1725116038.648282) vcan0 0D9#4CF7284F212536
(1725116038.861032) vcan0 0DAF37D3##62DC21E52BB39C9762DC21E52BB39C976
(1725116039.062679) vcan0 4CD#R2
(1725116039.268596) vcan0 048C534A#R8
(1725116039.469095) vcan0 228##6E777
(1725116039.670385) vcan0 477#0FBD903E0DC08B7D
(1725116039.871239) vcan0 7CF##6615D2F6A1C8F
(1725116040.077372) vcan0 01FBABAC##57278DC72D96D1A747278DC72D96D1A747278DC72D96D1A747278DC72D96D1A747278DC72D96D1A747278DC72D96D1A747278DC72D96D1A747278DC72D96D1A74
(1725116040.288085) vcan0 64A##6FC243C7713DF
(1725116040.517651) vcan0 0C237439##6A50199784AFE922DA50199784AFE922DA50199784AFE922DA50199784AFE922D
(1725116040.723728) vcan0 5BF##65C41
(1725116040.924392) vcan0 166E45C1##461BA7349D002FF3461BA7349D002FF3461BA7349D002FF3461BA7349D002FF34
(1725116041.134138) vcan0 43B##6
(1725116041.346270) vcan0 118#R8
(1725116041.558169) vcan0 155##4C9CDBE54
(1725116041.766842) vcan0 1A4D0544##544A9FB7FE906E65244A9FB7FE906E652
(1725116041.967059) vcan0 52F#463917098B66F929
(1725116042.171998) vcan0 1E9##76BE45A394BB4EC386BE45A394BB4EC386BE45A394BB4EC38
(1725116042.428876) vcan0 0C143E95#R6
(1725116042.638130) vcan0 1E2A7379##46C97AA222464C70E6C97AA222464C70E6C97AA222464C70E6C97AA222464C70E6C97AA222464C70E6C97AA222464C70E
(1725116042.860450) vcan0 28E#1C4CCE1F57B07A73
(1725116043.074703) vcan0 304##654F6BA65486CC20F54F6BA65486CC20F54F6BA65486CC20F
(1725116043.453191) vcan0 15757F29#2EA97A776FB88C
(1725116043.688524) vcan0 1BA7F37C##44FA40E01E8D702554FA40E01
(1725116043.890368) vcan0 36C#2AEFAA1B299D645B
(1725116044.093790) vcan0 165EA94D##4E14A
(1725116044.452272) vcan0 729##53FCAE515464B5959
(1725116044.733485) vcan0 19793609##73B8907395E2C343F3B8907395E2C343F
(1725116044.958104) vcan0 5C1##40A0C902FEFEE2F
(1725116045.241745) vcan0 40D##54F163C615CA845114F163C615CA845114F163C61
(1725116045.446946) vcan0 082E7CF3##4D1D0F1621E6CD963D1D0F162
(1725116045.668732) vcan0 0F4##495A9AE1CD6EB3B2895A9AE1CD6EB3B2895A9AE1C
(1725116045.950162) vcan0 05051E5B#6D79066B9BE8EA1A
(1725116046.161348) vcan0 16464D0C#8F444024
(1725116046.452032) vcan0 722##489F641282CCBB24C89F64128
(1725116046.653052) vcan0 280#R8
(1725116046.951713) vcan0 08E5A7B7#5E73EA
(1725116047.173578) vcan0 190A0C51#4C6FF402E6B5B835
(1725116047.428574) vcan0 571##452
(1725116047.629476) vcan0 697#R8
(1725116047.832146) vcan0 1DA52683##43C7ED32F0D1DE7253C7ED32F
(1725116048.033254) vcan0 0A068934#AEC4F72597761111
(1725116048.234299) vcan0 443#R8
(1725116048.435041) vcan0 000##553B0A3
(1725116048.635874) vcan0 19B4B5A5#R8
(1725116048.836583) vcan0 093B02F7#R8
(1725116049.039639) vcan0 1BB##5FF611870F70F4034FF611870F70F4034FF611870
(1725116049.240544) vcan0 774#95993338221C1E5F
(1725116049.450761) vcan0 1F2##4112E4F2911
(1725116049.651038) vcan0 0F1DC4E7##5FAC3
(1725116049.851639) vcan0 194735D3##7
(1725116050.059007) vcan0 1E902FBA##5669D877242
(1725116050.266720) vcan0 0644D51C#R8
(1725116050.473093) vcan0 461#1F9A1F53F61D5169
(1725116050.673721) vcan0 0277A9E2#1703E761F3D7C62B
(1725116050.874159) vcan0 31E##60C80C87D19CFB01F0C80C87D19CFB01F
(1725116051.087324) vcan0 1161A76B#F53C1C4A8833D849
(1725116051.287539) vcan0 5CC##6BFFFE5
(1725116051.601092) vcan0 05425D1C#83B32D0575BF8B7F
(1725116051.801496) vcan0 1A06B477##6FA45CC66974E
(1725116052.013127) vcan0 0AC#B5019379C3F35437
(1725116052.213676) vcan0 1AF#46
(1725116052.413896) vcan0 75B##6E7D23B4F50BC
(1725116052.636667) vcan0 3C1##7F1B7D4738153F330F1B7D4738153F330F1B7D4738153F330F1B7D4738153F330
(1725116052.837106) vcan0 277#9FF5BC29FA2D977D
(1725116053.037412) vcan0 50A##4E8
(1725116053.246924) vcan0 5B5#81
(1725116053.447608) vcan0 1ED#55D6276B34671066
(1725116053.648138) vcan0 450#FAAB283E3777A750
(1725116053.862018) vcan0 0A8#FD6C36769AB8691D
(1725116054.062381) vcan0 1F07E24D#R1
(1725116054.271157) vcan0 029F3F29##67C43084B12F309
(1725116054.479637) vcan0 485#R7
(1725116054.692065) vcan0 03713321#4A31C96F
(1725116054.906457) vcan0 41E#B7E5055C1868
(1725116055.119660) vcan0 04118897#R
(1725116055.325816) vcan0 66F##66B
(1725116055.537968) vcan0 576##7
(1725116055.743568) vcan0 4C1##48918FF3E6E08580C
(1725116055.949237) vcan0 0BA##772A3BB6D046A2F1272A3BB6D046A2F1272A3BB6D046A2F1272A3BB6D046A2F1272A3BB6D046A2F1272A3BB6D046A2F1272A3BB6D046A2F1272A3BB6D046A2F12
(1725116056.150372) vcan0 07C1A29A#CCF2
(1725116056.351236) vcan0 7C9##6FAF62E5DBF077435FAF62E5D
(1725116056.574220) vcan0 055##75FDE707BC06C0C165FDE707BC06C0C165FDE707BC06C0C165FDE707BC06C0C165FDE707BC06C0C165FDE707BC06C0C165FDE707BC06C0C165FDE707BC06C0C16
(1725116056.781432) vcan0 1D858E2D#6510EA28F2C264
(1725116057.106049) vcan0 027##6A28831
(1725116057.408436) vcan0 05F79420#B0B301239337B353
(1725116057.618846) vcan0 0B6##790019C1082EBCA6F90019C1082EBCA6F90019C1082EBCA6F90019C1082EBCA6F
(1725116057.831898) vcan0 19AF8FCA##769731527C586DE5669731527C586DE5669731527
(1725116058.032924) vcan0 093679E7##63A21CF264658A7443A21CF264658A744
(1725116058.233214) vcan0 4EF##6112E6E2C
(1725116058.433362) vcan0 13B##51A197212DDD1396F1A197212DDD1396F1A197212DDD1396F
(1725116058.633945) vcan0 05AA913B#97EFEF27EC44AC68
(1725116058.837594) vcan0 19FECB06#BE77
(1725116059.068140) vcan0 23E#6F
(1725116059.268403) vcan0 77A##54082BB40B458DA534082BB40B458DA534082BB40B458DA534082BB40B458DA534082BB40B458DA534082BB40B458DA53
(1725116059.469259) vcan0 61A#4806B61A
(1725116059.681675) vcan0 0647AFAF#R7
(1725116059.882062) vcan0 15D256A2#433D3C10
(1725116060.082373) vcan0 2D4#
(1725116060.282862) vcan0 5B6##5
(1725116060.485134) vcan0 01CF1D5D##5
(1725116060.686474) vcan0 182661DA#F92FA85B2268DC72
(1725116060.886604) vcan0 2F2#4B
(1725116061.087439) vcan0 690##69F3A4270D303C65E9F3A4270D303C65E
(1725116061.309880) vcan0 18F#8449EA1722B673
(1725116061.511794) vcan0 75A##60A5E71169261EC40
(1725116061.712099) vcan0 082##79F57E507871ACA619F57E507871ACA619F57E507871ACA619F57E507871ACA619F57E507871ACA619F57E507871ACA619F57E507871ACA619F57E507871ACA61
(1725116061.912228) vcan0 0C8019F4#45
(1725116062.113209) vcan0 629#55FCF0257425581F
(1725116062.314004) vcan0 4F0##5509AF6158F
(1725116062.514208) vcan0 294#R8
(1725116062.714364) vcan0 7BA#196347
(1725116062.917403) vcan0 126C5117#F423F82BB6A8
(1725116063.118303) vcan0 281##72FCD486EC68E69352FCD486EC68E6935
(1725116063.319082) vcan0 1B15B1B3##57619F55509AE06417619F55509AE06417619F55509AE06417619F55509AE06417619F55509AE06417619F55509AE06417619F55509AE06417619F55509AE0641
(1725116063.519931) vcan0 1BD#69D67C4E0D5C7B7F
(1725116063.720292) vcan0 641#A693
(1725116063.920441) vcan0 2E7##62D8EF54B009E69632D8EF54B009E69632D8EF54B
(1725116064.120820) vcan0 332#8628935C27572A
(1725116064.321268) vcan0 154##7785AF9768446347F
(1725116064.522294) vcan0 05F36710##75EED14298680E8
(1725116064.722487) vcan0 7C2#393126
(1725116064.923010) vcan0 150CD3C1#F3CC833A68675775
(1725116065.127151) vcan0 7AD##7AA9DA86CDBA51E4AAA9DA86CDBA51E4AAA9DA86CDBA51E4AAA9DA86CDBA51E4AAA9DA86CDBA51E4AAA9DA86CDBA51E4AAA9DA86CDBA51E4AAA9DA86CDBA51E4A
(1725116065.327607) vcan0 16AD8FEA##7662FB95670B84053662FB95670B84053662FB95670B84053662FB95670B84053
(1725116065.528598) vcan0 734#DDC9E352AD
(1725116065.728825) vcan0 1AB5F24C#8070AA7DAADFCA63
(1725116065.928993) vcan0 18FB16C1##4874B2325FA47212D874B2325FA47212D874B2325FA47212D874B2325FA47212D
(1725116066.129323) vcan0 1D8#R8
(1725116066.330100) vcan0 334#7325FF34DE80A618
(1725116066.531142) vcan0 15E265C2##4614D286C28959B0C
(1725116066.732867) vcan0 595#R8
(1725116066.933084) vcan0 346##6C7062415C7E3CB27C7062415C7E3CB27C7062415C7E3CB27C7062415C7E3CB27C7062415C7E3CB27C7062415C7E3CB27
(1725116067.134027) vcan0 14DA100A#D6D0826B915BFD79
(1725116067.354489) vcan0 66E##43E5E16507410236A3E5E1650
(1725116067.555223) vcan0 162#ADCA510BD5069B1C
(1725116067.761659) vcan0 700##54E851B3E618C51
(1725116067.961868) vcan0 686#1D5E9512844971
(1725116068.162227) vcan0 03EBDC27#288BB90AEEE20F79
(1725116068.363235) vcan0 08C1A491#199B253A67754474
(1725116068.563611) vcan0 59C##6F393F04BDA
(1725116068.763744) vcan0 14899028#F1AFB225D55ADB1F
(1725116068.963885) vcan0 477##4AA90D80EC5
(1725116069.164084) vcan0 0DF1926A##52E304B4D87F086002E304B4D87F086002E304B4D87F08600
(1725116069.365017) vcan0 197#9AFE492CBF0C8148
(1725116069.565865) vcan0 72C#R
(1725116069.765972) vcan0 1353F11E##58D
(1725116069.967154) vcan0 6D6#R8
(1725116070.167890) vcan0 1C1B950B##7E409AE2BB525F42AE409AE2BB525F42AE409AE2BB525F42AE409AE2BB525F42AE409AE2BB525F42AE409AE2BB525F42AE409AE2BB525F42AE409AE2BB525F42A
(1725116070.368629) vcan0 0804301B#5105903A49604F35
(1725116070.568983) vcan0 721##554
(1725116070.773912) vcan0 4F0#F19FDA0C85C7CE
(1725116070.974437) vcan0 1261C6A8#0E37E4
(1725116071.175556) vcan0 0EE48ACA#EF52350DC3FBA42E
(1725116071.375889) vcan0 2FE#13CACD4CE3CC8C2C
(1725116071.576068) vcan0 718#A46E9A0E69DCA70E
(1725116071.782038) vcan0 74A#293FF73C9F8CE625
(1725116071.983182) vcan0 5C9##52D4EBA4CBACD69052D4EBA4CBACD69052D4EBA4CBACD69052D4EBA4CBACD69052D4EBA4CBACD69052D4EBA4CBACD69052D4EBA4CBACD69052D4EBA4CBACD6905
(1725116072.193083) vcan0 55A#B8313A
(1725116072.415236) vcan0 76D#R3
(1725116072.615712) vcan0 051BBC78##5C6BBF02A8C86E971C6BBF02A8C86E971C6BBF02A
(1725116072.825996) vcan0 24A##73D4FD30A
(1725116073.036797) vcan0 485##7985D9838AEEBAA11985D9838
(1725116073.281827) vcan0 6DE#R7
(1725116073.482614) vcan0 77C##4957B6F6734E1
(1725116073.683664) vcan0 1C92A92D##703
(1725116073.884339) vcan0 0FA##75A98F556C03CE85D5A98F556C03CE85D
(1725116074.084983) vcan0 298##57B9F9B26D5390B587B9F9B26D5390B58
(1725116074.286008) vcan0 1B44D989#R8
(1725116074.486890) vcan0 50A#
(1725116074.686998) vcan0 2B2#72955E7B474EB73F
(1725116074.887408) vcan0 1C9ABC42#C3247754
(1725116075.088124) vcan0 7C1##591B18F741BD0AC3891B18F741BD0AC3891B18F741BD0AC3891B18F741BD0AC3891B18F741BD0AC3891B18F741BD0AC3891B18F741BD0AC3891B18F741BD0AC38
(1725116075.300328) vcan0 1529F367##7097FCF7E
(1725116075.501331) vcan0 0C9D0F02#E4DAAE0A3497B131
(1725116075.702373) vcan0 0918ACEC#8DA1DD7C6C98BC11
(1725116075.905811) vcan0 499#9DDAF13B0B4A0535
(1725116076.106786) vcan0 0BFFAEBF#DAB0056682D37620
(1725116076.307455) vcan0 720##4D1AB5B
(1725116076.507608) vcan0 039D7BD0##71396BF40DAFA6C621396BF40
(1725116076.713350) vcan0 1EAF8A9C##6674B6E2880655E29674B6E2880655E29674B6E2880655E29
(1725116076.930487) vcan0 1355EEF4#4F45AF7481903350
(1725116077.136337) vcan0 095B2CFF#R8
(1725116077.352983) vcan0 17F3CF5D#73957F103780F97D
(1725116077.553689) vcan0 605##72195F153D759DD34
(1725116077.754619) vcan0 0ECC7080#22CCF07F93068C
(1725116077.977531) vcan0 1154AB1E#
(1725116078.178386) vcan0 36F#1D09110ABEC05C3F
(1725116078.379278) vcan0 3F7##614BB2607EFC97C7C14BB2607EFC97C7C14BB2607EFC97C7C14BB2607EFC97C7C14BB2607EFC97C7C14BB2607EFC97C7C
(1725116078.579743) vcan0 06064A39##6B7AB517FACDF8556B7AB517FACDF8556B7AB517FACDF8556
(1725116078.784508) vcan0 595#DC40
(1725116078.984688) vcan0 069AC0E5#30BD5F75088D8B
(1725116079.193750) vcan0 5B2##6FAD29A711068
(1725116079.423206) vcan0 0934C9AB##62414BC7EC8D245132414BC7EC8D245132414BC7EC8D245132414BC7EC8D245132414BC7EC8D245132414BC7EC8D245132414BC7EC8D245132414BC7EC8D24513
(1725116079.642604) vcan0 1C088A1E#R8
(1725116079.844080) vcan0 756##7FBE977320D33523AFBE977320D33523AFBE97732
(1725116080.059059) vcan0 37F#R2
(1725116080.264409) vcan0 04A7E453#R
(1725116080.464637) vcan0 05A#6ECA304655
(1725116080.675748) vcan0 17D3F919#
(1725116080.876050) vcan0 702#88A64017FDB0AE3A
(1725116081.076727) vcan0 1547F736#F96BFD5E
(1725116081.277641) vcan0 1EB8DB11#
(1725116081.478173) vcan0 0BD7075D##64C2E9175ED7518504C2E9175ED7518504C2E9175ED7518504C2E9175ED7518504C2E9175ED7518504C2E9175ED751850
(1725116081.678414) vcan0 03E1C094#E78C7A0F038B12
(1725116081.878628) vcan0 42C#R8
(1725116082.099042) vcan0 665##6B5280F
(1725116082.299392) vcan0 543#44A783
(1725116082.500398) vcan0 0B8512A6#057A054AAAE6ED46
(1725116082.701185) vcan0 311#56E02C705DD162
(1725116082.901310) vcan0 607#3B
(1725116083.117687) vcan0 3D8#11A13D1D742AF03E
(1725116083.318630) vcan0 26B#FF4B6E21205BC320
(1725116083.519120) vcan0 2EF##5EAB10A
(1725116083.725016) vcan0 1B6E473F##7EC1DFC7F44C17345EC1DFC7F44C17345
(1725116083.925698) vcan0 214#8B49FE676A
(1725116084.135773) vcan0 57F##4A4C7
(1725116084.336016) vcan0 498#7B1A
(1725116084.536166) vcan0 1E7BA887##5E0D6F857
(1725116084.747555) vcan0 005FD4A7#9873932C9186
(1725116084.948430) vcan0 538##6
(1725116085.149316) vcan0 208#6AF3911C932B7615
(1725116085.350157) vcan0 073A291C##41528
(1725116085.551060) vcan0 376#5F7CC116F16D504A
(1725116085.752085) vcan0 266##41713223946E9A71E17132239
(1725116085.952811) vcan0 041B264C##775BAE20FE499AE1075BAE20FE499AE1075BAE20FE499AE1075BAE20FE499AE10
(1725116086.153715) vcan0 41F##74E124B57A35214124E124B57A35214124E124B57A3521412
(1725116086.354678) vcan0 1697A163#7AE7B25FCD942913
(1725116086.560235) vcan0 71D##75039545533D7A81A50395455
(1725116086.774546) vcan0 21D##60384F5377CC6D9110384F537
(1725116086.976201) vcan0 705##613AF
(1725116087.187569) vcan0 213#1680381688747B68
(1725116087.387937) vcan0 13AAC494#69917E13E3D6F56A
(1725116087.629158) vcan0 002DD3AA##6F7C7F15324BB
(1725116087.829640) vcan0 08F42835##4FCCA
(1725116088.054079) vcan0 0CA579A6#1E6C38
(1725116088.263670) vcan0 064F04B8##7014BC363CCB33136014BC363CCB33136014BC363CCB33136014BC363CCB33136014BC363CCB33136014BC363CCB33136014BC363CCB33136014BC363CCB33136
(1725116088.464459) vcan0 1AF40D29##634E79F4F3F8D2C7134E79F4F3F8D2C7134E79F4F3F8D2C7134E79F4F3F8D2C7134E79F4F3F8D2C7134E79F4F3F8D2C7134E79F4F3F8D2C7134E79F4F3F8D2C71
(1725116088.675173) vcan0 046D9981##50F239779
(1725116088.884613) vcan0 0DFCB65B##5FDA05A5152
(1725116089.085834) vcan0 0611AE10#R7
(1725116089.286727) vcan0 02366570#B0B38B
(1725116089.494081) vcan0 5CF#R7
(1725116089.708938) vcan0 1D6A9BD7##4F2F7B96C0B830A2DF2F7B96C0B830A2D
(1725116089.926279) vcan0 03FFDA59#R8
(1725116090.126482) vcan0 5C4##50B467E01
(1725116090.327135) vcan0 7C5##59D
(1725116090.528757) vcan0 0AB##791
(1725116090.746862) vcan0 072630ED##70631A024F9FD0F790631A024F9FD0F790631A024
(1725116090.990601) vcan0 028FBB19##6
(1725116091.196188) vcan0 0D92B42F##66739FD143C
(1725116091.431372) vcan0 0DD##792
(1725116091.632452) vcan0 0A8##49492C62F45495B429492C62F45495B429492C62F45495B429492C62F45495B429492C62F45495B429492C62F45495B42
(1725116091.836530) vcan0 072##7
(1725116092.037527) vcan0 65F#
(1725116092.240459) vcan0 1D53A372#B9E91746684C3C0D
