(000.000000) vcan0 515##44801AC6F3A36F34C4801AC6F3A36F34C
(000.200173) vcan0 07492AD3##546B43E6FA034DB02
(000.400307) vcan0 541#R6
(000.600371) vcan0 055449CB#C1DC0E5EDF31DB49
(000.801051) vcan0 0E5#0A81697A331B0F1E
(001.001446) vcan0 0CB5AD9C#C083B8136734BD78
(001.201584) vcan0 72A#0680135372A8552D
(001.401811) vcan0 79E##5AFF8E52EE40B
(001.601981) vcan0 4AB##52CA4EE3A7E80
(001.802108) vcan0 75D#R8
(002.002230) vcan0 05F35BCA#E1DD4406
(002.202476) vcan0 15052223##5A0
(002.402523) vcan0 42C#R8
(002.602856) vcan0 00B#
(002.803384) vcan0 1FD5D0AC#DBD07912D874
(003.003464) vcan0 4B7#2EE0CD7930EA
(003.203701) vcan0 458#5805E33A39BABF3D
(003.403815) vcan0 1E4FB590##740AD8F6830EE323A40AD8F6830EE323A40AD8F6830EE323A
(003.603915) vcan0 418#4ECFE9616D34E40B
(003.804026) vcan0 4CE##75F4ACA63958D027E5F4ACA63
(004.004985) vcan0 17B1DA14##499
(004.205974) vcan0 07E##65057BA11ACC8
(004.406103) vcan0 7A4##5D1E73F69
(004.606223) vcan0 2A0##79A3B6C7EE0B74C0D9A3B6C7EE0B74C0D9A3B6C7EE0B74C0D9A3B6C7EE0B74C0D
(004.806376) vcan0 19EEBDDA#R8
(005.006490) vcan0 1A7##5DF94A155061CE3
(005.207887) vcan0 212#CD3D5A4DACA4680B
(005.408816) vcan0 05F710E7#AF58B3403768B117
(005.609735) vcan0 286##5DBFA5B6C57E21258DBFA5B6C57E21258DBFA5B6C57E21258
(005.810439) vcan0 18035A19#R7
(006.011450) vcan0 1C2BF023##5CFC8C8253CFBAC5BCFC8C8253CFBAC5BCFC8C8253CFBAC5BCFC8C8253CFBAC5BCFC8C8253CFBAC5BCFC8C8253CFBAC5B
(006.211566) vcan0 135##5AD32B6
(006.411727) vcan0 239##604DF3D21075092
(006.611834) vcan0 08FE800E##4FDB9304BBDD8B129FDB9304BBDD8B129FDB9304BBDD8B129FDB9304BBDD8B129FDB9304BBDD8B129FDB9304BBDD8B129
(006.811984) vcan0 7D3##502F92B
(007.012097) vcan0 5DB##691A2676D4175C6
(007.212525) vcan0 17844768##6094ED274
(007.413098) vcan0 6BF#832D650F6D61BF1E
(007.613220) vcan0 66D##4A96F610572F5
(007.813345) vcan0 088A9C7C#
(008.013687) vcan0 1F4DEDC2#R8
(008.213830) vcan0 1018D71B##6C2D56521AD79803DC2D56521AD79803DC2D56521AD79803DC2D56521AD79803DC2D56521AD79803DC2D56521AD79803DC2D56521AD79803DC2D56521AD79803D
(008.414044) vcan0 03D#44B7723E46
(008.614448) vcan0 101217E4#BB02F83C6745
(008.814616) vcan0 0A98EA3D##419226C26E6
(009.015084) vcan0 0CF5E5C7##5C7C6
(009.215214) vcan0 0B181504##627B3A04985
(009.415330) vcan0 1D022422#88
(009.615554) vcan0 568##76348
(009.815680) vcan0 1F8919B1#
(010.015798) vcan0 1517E3E2##5CC7D8C21FB05843BCC7D8C21
(010.215918) vcan0 085DCF13##7F156
(010.416068) vcan0 1BD9A3CC#4AEED96FF3567A25
(010.617086) vcan0 533#05EFDC3CBB88
(010.817399) vcan0 150F7653##61D3F26
(011.018158) vcan0 04142786##75F374E02F55CB71E
(011.218955) vcan0 157#7DFB6A2523D7E1
(011.419056) vcan0 1C7F5C0C##49532CD57FDB218
(011.619213) vcan0 145028BB#F0E64A3F05172A44
(011.819307) vcan0 055#R8
(012.019391) vcan0 5CD#18034B23EBDCF335
(012.219510) vcan0 16095DE7#CD
(012.419603) vcan0 15C9B9A1##53EA28E0C1EB5343B3EA28E0C1EB5343B3EA28E0C1EB5343B3EA28E0C1EB5343B3EA28E0C1EB5343B3EA28E0C1EB5343B
(012.619791) vcan0 1BE1E911#F86BCE77A71BAF53
(012.820383) vcan0 1F87A80A##5F01A
(013.020520) vcan0 192BC8AC##5A03FFE697FF11409A03FFE697FF11409A03FFE697FF11409A03FFE697FF11409A03FFE697FF11409A03FFE697FF11409A03FFE697FF11409A03FFE697FF11409
(013.220632) vcan0 495##6583CFD51ADAF537D583CFD51ADAF537D583CFD51ADAF537D
(013.421174) vcan0 07A628BD##5A970DE69
(013.621735) vcan0 029DD210##6799161354E742C4F799161354E742C4F79916135
(013.822385) vcan0 11F0573B#
(014.022608) vcan0 0B9E319A##569BDBC468A4C5D3769BDBC468A4C5D3769BDBC468A4C5D3769BDBC468A4C5D37
(014.222719) vcan0 0D0#R6
(014.422867) vcan0 06FC6031#02968053899C
(014.623615) vcan0 03570239##447C29D47E272
(014.823734) vcan0 523#FB59
(015.023905) vcan0 04C4B644#A1160E4AB72396
(015.224562) vcan0 08CB8FA8##648
(015.424736) vcan0 15C27680##612
(015.624969) vcan0 5C7##458C33F76C953396D58C33F76
(015.825637) vcan0 0A80780B##4098AB9
(016.025720) vcan0 1E783CDA#D80D990DD596
(016.226629) vcan0 719##4EAE3C808BADDA656EAE3C808BADDA656
(016.426692) vcan0 0D2BF4F5#23C6
(016.627068) vcan0 0C4067FE##454206951101F5B0C54206951101F5B0C54206951101F5B0C54206951101F5B0C54206951101F5B0C54206951101F5B0C
(016.827192) vcan0 6A7##5FFD7DB33FFA1FB46
(017.027250) vcan0 11F59CC2#A486DD03CC26AF30
(017.227353) vcan0 78A##7D4F30A09625D
(017.427471) vcan0 172F89E6##695472B7AD06DF85F95472B7AD06DF85F95472B7A
(017.627622) vcan0 1EA5B867#976FEE118A
(017.827740) vcan0 00E92A0A##4C1BB91185E4A5252
(018.028502) vcan0 074D6B87#R5
(018.228923) vcan0 0D511312#10E5851BB7992E11
(018.429007) vcan0 1F20396E#BB
(018.629482) vcan0 0F3C6536##41E6BE35DCCAC6749
(018.830220) vcan0 105F6D53#R3
(019.030457) vcan0 14715BC1#R4
(019.231126) vcan0 7DE##4587A97384FB2EA78587A9738
(019.431237) vcan0 55D#D9A6
(019.631988) vcan0 1A66ADEE#R8
(019.832098) vcan0 0C4A8EFD#R8
(020.032239) vcan0 04206D3E##6DE8F0D48FDF49750DE8F0D48FDF49750DE8F0D48FDF49750DE8F0D48FDF49750DE8F0D48FDF49750DE8F0D48FDF49750
(020.232731) vcan0 39B#R8
(020.432817) vcan0 159B9C9E#4AEB5C66F616334E
(020.633683) vcan0 15D6B1DA##7718573
(020.833949) vcan0 48A#9B
(021.034649) vcan0 3B8##62A
(021.235098) vcan0 7D5#R8
(021.435206) vcan0 03FB61C2#R8
(021.635273) vcan0 739#F016FB2983CAAD28
(021.835358) vcan0 1832D6FF##4F6BCB038705CA64CF6BCB038705CA64CF6BCB038705CA64CF6BCB038705CA64CF6BCB038705CA64CF6BCB038705CA64C
(022.035458) vcan0 07AC43B7#B3DBC95D522EEF53
(022.235574) vcan0 2FD##7BF2903112798C61CBF2903112798C61CBF290311
(022.435732) vcan0 1D95DFBB#459FCA1625FDB564
(022.635840) vcan0 0205C57F#0083B178773C4A
(022.835990) vcan0 0D5F8C31#
(023.036228) vcan0 0E44B644##4
(023.236936) vcan0 7A3#8A17
(023.437456) vcan0 568#4F8F35
(023.638166) vcan0 045CFD58##67806
(023.839133) vcan0 1B48BE29##5EEEA561F2941FA53EEEA561F2941FA53EEEA561F2941FA53EEEA561F2941FA53
(024.039247) vcan0 6E3#44BA1264844C7E72
(024.239371) vcan0 015BA077##69BEA41080903295D9BEA4108
(024.439484) vcan0 12B#F62C5A16B5D82D39
(024.639534) vcan0 23A##4555CFC708AA12061555CFC708AA12061555CFC708AA12061555CFC708AA12061
(024.839659) vcan0 2D0#269C
(025.039787) vcan0 02D#9D
(025.240201) vcan0 0D4A3C31##6F5D5C55B75F65C31F5D5C55B75F65C31F5D5C55B75F65C31F5D5C55B75F65C31F5D5C55B75F65C31F5D5C55B75F65C31
(025.440295) vcan0 147A4671##44C5921180C31BC7C4C5921180C31BC7C4C5921180C31BC7C4C5921180C31BC7C
(025.640945) vcan0 750##5A2D4CB5946FC3336
(025.841040) vcan0 0E4122A4#
(026.041127) vcan0 64F##6ED4EBD3576D28F6AED4EBD3576D28F6A
(026.241306) vcan0 26D##4845222
(026.441384) vcan0 158E5B1F##7BD17AD0114315451BD17AD0114315451BD17AD0114315451
(026.641465) vcan0 640##49FF194058C
(026.841830) vcan0 395##4CA9ABC033760420FCA9ABC033760420FCA9ABC033760420F
(027.042819) vcan0 5B7##4A3A15956C28E0055A3A15956C28E0055A3A15956
(027.243770) vcan0 1AD#9E83
(027.443996) vcan0 6B1#2B92556B35611B36
(027.644606) vcan0 08229FEA##44FB76D08
(027.844696) vcan0 201#EE64CC42A003DF40
(028.045583) vcan0 05570D80#51840E254A
(028.245762) vcan0 774#47
(028.446198) vcan0 41C#D661F318
(028.646744) vcan0 0045F95E##767D64B78898B9B2B67D64B78898B9B2B67D64B78
(028.846872) vcan0 17A#F423E322
(029.047641) vcan0 15D#R8
(029.247801) vcan0 1470F679##6A185267ACB7A7F39A185267ACB7A7F39A185267A
(029.447895) vcan0 1FBE750D#163A487855E7D942
(029.648777) vcan0 6DA##51A
(029.849576) vcan0 173A0179##69759F969E0D7854F9759F969E0D7854F9759F969E0D7854F9759F969E0D7854F9759F969E0D7854F9759F969E0D7854F
(030.050167) vcan0 137#R8
(030.251020) vcan0 428#EFD459192CD5020B
(030.451134) vcan0 35A#9FF0A86EFB50
(030.651250) vcan0 1FC11CB4#B0D8BB5ECA560958
(030.851342) vcan0 406##7CF08A03C20
(031.051499) vcan0 057B5BFA#6498A04791B5744F
(031.251610) vcan0 5FC##6D5544E2E083FFA4DD5544E2E
(031.451764) vcan0 04B636F9#
(031.651873) vcan0 752#R2
(031.852641) vcan0 273##747EE9B6923
(032.052913) vcan0 03859BA5##714514E3274A4250014514E32
(032.253272) vcan0 76A##6E4E4B72ACE4FDD13E4E4B72ACE4FDD13E4E4B72ACE4FDD13E4E4B72ACE4FDD13E4E4B72ACE4FDD13E4E4B72ACE4FDD13
(032.453403) vcan0 05E#C92CBD65338D9438
(032.654402) vcan0 0BE##402F0597B3CDB2E7302F0597B3CDB2E7302F0597B3CDB2E73
(032.855211) vcan0 05E#57A79516617CFB21
(033.055325) vcan0 0921CF95##724174C4E
(033.255463) vcan0 293#R1
(033.455571) vcan0 1543926B#63FE
(033.655702) vcan0 463#AA384C1B2CE1DC16
(033.855812) vcan0 1E121D7C#0E0121207E0D6C19
(034.055935) vcan0 122##5B4DF0D7779781112B4DF0D7779781112B4DF0D7779781112
(034.256259) vcan0 17972A33#R8
(034.457291) vcan0 30A##66B5F34642B2C992B6B5F34642B2C992B6B5F3464
(034.657958) vcan0 1A9D5D60##4A54A0513C45BA7
(034.858826) vcan0 585##594E5196B2F16D2
(035.058984) vcan0 276#3E5BFB6F8423116E
(035.259138) vcan0 1481A065#051FAD641980
(035.459247) vcan0 143#2EB5D17655425777
(035.659360) vcan0 319#8F670543841AF728
(035.859449) vcan0 722##62130D214C7
(036.059611) vcan0 15AA6608#D0E302429C4BC440
(036.259747) vcan0 00A6D524##626E1
(036.460416) vcan0 24F##53D8652665541A608
(036.660970) vcan0 01F0F35D#2EFBD9338BA8C258
(036.861945) vcan0 1CE3E6D3#4C425F67
(037.062621) vcan0 1B54B3D6#0EF6106AF8
(037.262718) vcan0 1B7#
(037.462864) vcan0 414#R8
(037.662975) vcan0 120F9545##7D783BC3C821B6278D783BC3C821B6278
(037.863437) vcan0 0D6FD4B8##777BB687AE7CF490177BB687AE7CF490177BB687AE7CF490177BB687AE7CF490177BB687AE7CF490177BB687AE7CF490177BB687AE7CF490177BB687AE7CF4901
(038.063552) vcan0 196BB864##60F1B9B50B0FACA000F1B9B50B0FACA00
(038.263708) vcan0 138#R7
(038.463842) vcan0 1B2539EE##77FDC17128748D5047FDC17128748D5047FDC17128748D5047FDC17128748D504
(038.663952) vcan0 18AD721B#3189BB12CA75F72D
(038.864070) vcan0 440##5
(039.064238) vcan0 240##47235BC12B81DA4107235BC12B81DA4107235BC12B81DA4107235BC12B81DA4107235BC12B81DA4107235BC12B81DA4107235BC12B81DA4107235BC12B81DA410
(039.264815) vcan0 4DD##5701BF813EC076D16701BF813EC076D16701BF813EC076D16
(039.465004) vcan0 120F208D#547FFA062E
(039.665821) vcan0 134111D3##66989223452EE58656989223452EE58656989223452EE5865
(039.866439) vcan0 1FE78FEE##43F6ABB461F19A3123F6ABB461F19A3123F6ABB461F19A3123F6ABB461F19A312
(040.066551) vcan0 415#R8
(040.266721) vcan0 7DA##545AA88384C3D2A
(040.467666) vcan0 0E530EFC##78BC390546C2A4B228BC39054
(040.667732) vcan0 458##53BD3ED40AC1366063BD3ED40
(040.868309) vcan0 3A6#444B6D760F8DBD23
(041.068675) vcan0 09DEB0E8#3F74063D271B9A30
(041.268779) vcan0 277#R8
(041.469496) vcan0 1747A0F1##46A643B0E374BD02F6A643B0E
(041.670170) vcan0 1D9##50F9B9D
(041.870291) vcan0 0106CD25##799CFC85460A0F40199CFC85460A0F40199CFC85460A0F40199CFC85460A0F401
(042.070446) vcan0 1C99FDC1#E9E2C56C054907
(042.271048) vcan0 6BA##5144EF238F96ACC68144EF238F96ACC68144EF238F96ACC68144EF238F96ACC68
(042.471154) vcan0 430#
(042.671559) vcan0 129BD104##7C91451206E35D760C91451206E35D760C91451206E35D760C91451206E35D760
(042.871619) vcan0 5AF#0756B567BE2090
(043.071761) vcan0 0823DAA7##668469933
(043.271850) vcan0 3D2#4B
(043.471964) vcan0 362##5F4EA730976
(043.672414) vcan0 16F40008##7DFFDE019593C
(043.873198) vcan0 70F##4F0F5D06CD8F30B61F0F5D06CD8F30B61F0F5D06CD8F30B61F0F5D06CD8F30B61
(044.074145) vcan0 1662F1C4##612CA3722CC4718
(044.274742) vcan0 091866BE#298825
(044.474864) vcan0 11B1166E##4B474AF5CB948CC64
(044.675244) vcan0 093D65BA##429752B56AE50B13229752B56AE50B13229752B56
(044.875357) vcan0 1E3BBD98#3893241F77BB1C
(045.075470) vcan0 08A#6E9AA3267ACE
(045.275586) vcan0 539##7E507E20B4CA77F51E507E20B4CA77F51E507E20B4CA77F51E507E20B4CA77F51E507E20B4CA77F51E507E20B4CA77F51E507E20B4CA77F51E507E20B4CA77F51
(045.475703) vcan0 1C70A22B##67E2ABC59542A962C7E2ABC59542A962C
(045.675799) vcan0 731#296C
(045.876514) vcan0 3DC#R8
(046.076639) vcan0 329##70573281F6126FC3D0573281F6126FC3D0573281F6126FC3D0573281F6126FC3D
(046.276777) vcan0 1DFF0015#9B8CF676839AA244
(046.477619) vcan0 2FA##5A58D9C64DF22BC5CA58D9C64DF22BC5CA58D9C64DF22BC5CA58D9C64DF22BC5C
(046.677789) vcan0 181C95B0#132D02602EC0D851
(046.877901) vcan0 174BE843##721300A246C54FF5121300A246C54FF5121300A246C54FF5121300A246C54FF5121300A246C54FF5121300A246C54FF5121300A246C54FF5121300A246C54FF51
(047.078026) vcan0 19D#E3F4236B35EF6557
(047.278373) vcan0 731##7EC076311368ACF7FEC076311368ACF7FEC076311368ACF7FEC076311368ACF7FEC076311368ACF7FEC076311368ACF7F
(047.478491) vcan0 0F81FA01##7AAA769049C867806AAA769049C867806AAA769049C867806
(047.679054) vcan0 139E7510##78C9C5B56B502
(047.879160) vcan0 395##580893B4DA8
(048.079342) vcan0 12FE78DF##4F20FEE1001A90837F20FEE1001A90837F20FEE1001A90837
(048.279721) vcan0 336#R8
(048.479826) vcan0 140E4EF0##431D4C96BDC56714531D4C96BDC56714531D4C96B
(048.680132) vcan0 4F0##4CE53A9229B246D24CE53A9229B246D24CE53A9229B246D24CE53A9229B246D24
(048.880543) vcan0 051A789D#R8
(049.081365) vcan0 06CD3D86#C6349E6006C70834
(049.282085) vcan0 55A#548A17664C9D
(049.482229) vcan0 0B2AAFAC##5854B36
(049.683011) vcan0 11C29D59#R8
(049.883084) vcan0 16A##6F7234B623855F07DF7234B623855F07DF7234B62
(050.083246) vcan0 370##5C1AC083A8074
(050.283431) vcan0 122#BFB3BC55E97D
(050.483501) vcan0 08C06D27#F3B852
(050.683584) vcan0 1062A1DA##71279754E5FED986C
(050.883742) vcan0 1AF##5B450C13598A94276
(051.083904) vcan0 031923CE##4BEEA
(051.284545) vcan0 1B74FDD4##611CE845295
(051.485311) vcan0 111##5BC69D32AD064C206
(051.685507) vcan0 161EE2C9#E47C7678BC9B7108
(051.886347) vcan0 19EF2573##49B705D58869E
(052.086448) vcan0 511##5AEB5C843C5
(052.286620) vcan0 1FB0B1F1#D06407
(052.487532) vcan0 50B#R3
(052.687708) vcan0 1B22FC44#R8
(052.887958) vcan0 14A2AA72#R8
(053.088024) vcan0 469##51D225B5D045509501D225B5D
(053.288085) vcan0 02C84D13##785FBA717C102
(053.488182) vcan0 1625B552##66FE94D
(053.688267) vcan0 2C7##4E6EB0734552F577DE6EB0734552F577DE6EB0734552F577DE6EB0734552F577D
(053.888744) vcan0 1E2330FF#7696C01AD0690B48
(054.089513) vcan0 774##664DA
(054.289631) vcan0 6EA#R2
(054.489721) vcan0 003C73B1##5EDCDD61B366FE437EDCDD61B366FE437
(054.690267) vcan0 5C8#R8
(054.890456) vcan0 0B6D36F1##6D8BDE539D722751FD8BDE539D722751FD8BDE539D722751FD8BDE539D722751FD8BDE539D722751FD8BDE539D722751FD8BDE539D722751FD8BDE539D722751F
(055.090727) vcan0 022#EE2CF64A9806
(055.291137) vcan0 688##5E8D15142EC98EC03E8D15142EC98EC03E8D15142EC98EC03
(055.491242) vcan0 580##548BF5504E295
(055.691378) vcan0 31F##7F86691
(055.891464) vcan0 045297D4#519D136363
(056.091532) vcan0 3FC#0B785808D5
(056.291636) vcan0 160#032BD0584EA6CA
(056.491933) vcan0 1E73E8A9##79CF60F6092BA
(056.692048) vcan0 712##49855
(056.892536) vcan0 676#8767EC466FF50934
(057.092685) vcan0 050##55B09B0
(057.293258) vcan0 09E3AF68##5FCBE744473273C12FCBE744473273C12FCBE744473273C12FCBE744473273C12FCBE744473273C12FCBE744473273C12
(057.493465) vcan0 1FAC9628##46AFD4F
(057.694170) vcan0 19760DFA#F7AB0C0296
(057.894405) vcan0 152AA9B9##5792C954452FF414B
(058.094536) vcan0 26E##47CFBA978F5F14875
(058.295413) vcan0 1B864603##57B10212D5E4F
(058.495482) vcan0 322#86A99C661EDA
(058.695718) vcan0 4FA##60DC7667B649A
(058.895806) vcan0 62F##447DB610926BA4E5047DB610926BA4E5047DB610926BA4E5047DB610926BA4E5047DB610926BA4E5047DB610926BA4E50
(059.095895) vcan0 7AE#
(059.296467) vcan0 29F##4FAF075511B
(059.496577) vcan0 063A7432##6D1BA915AAD845B33D1BA915AAD845B33D1BA915AAD845B33D1BA915AAD845B33D1BA915AAD845B33D1BA915AAD845B33
(059.696660) vcan0 0ADA0AB9#R8
(059.896821) vcan0 0033B07D#33EA6A3D8B779A7B
(060.097730) vcan0 3A5##7FC93F149ECF63D39FC93F149ECF63D39
(060.298609) vcan0 0F1#C0A3A41F8DC92C69
(060.499324) vcan0 6F2##457990D54EDF7D54157990D54EDF7D54157990D54EDF7D541
(060.699485) vcan0 1E2#66F61D24B33CF237
(060.899611) vcan0 1E3#9B909A04270CBF2B
(061.099715) vcan0 288#E54CDB53
(061.299972) vcan0 0BE53883##7E9
(061.500631) vcan0 0B94F9CA#E8
(061.701025) vcan0 0AA##72B9BEC2C017AFD3C2B9BEC2C017AFD3C2B9BEC2C017AFD3C2B9BEC2C017AFD3C
(061.901519) vcan0 573##689088025
(062.102143) vcan0 00EBF955##504801C75F089862504801C75F089862504801C75F089862504801C75F0898625
(062.302961) vcan0 3B0#88962E0395C83A3D
(062.503083) vcan0 0ABBCAB8##494996B48A184251C94996B48
(062.703214) vcan0 1701A0E2#R8
(062.903330) vcan0 208##573C08D6E
(063.103437) vcan0 0BFD5CDD#593539006665
(063.303529) vcan0 5F1#3DBC1136F5EDA547
(063.503645) vcan0 0D4D9621##6237D8705A9
(063.703755) vcan0 656##653
(063.903862) vcan0 165700EC##46EFA177FF6DB83606EFA177FF6DB83606EFA177FF6DB83606EFA177FF6DB8360
(064.104775) vcan0 120C1664##50BDFD300D7D699400BDFD300D7D699400BDFD300D7D699400BDFD300D7D699400BDFD300D7D699400BDFD300D7D699400BDFD300D7D699400BDFD300D7D69940
(064.304880) vcan0 080##4D97D8903
(064.505391) vcan0 459##6D5F77D1096283044D5F77D1096283044D5F77D10
(064.705495) vcan0 080#65131D32A35DF5
(064.905706) vcan0 59F#C2E2311DF378BD37
(065.105887) vcan0 148F5EC5#B2449F1F3359A773
(065.306145) vcan0 449##5D5E3AB4D54436978
(065.506524) vcan0 183BBF07##7247AE412
(065.706647) vcan0 33E##77965727F140B77217965727F
(065.906748) vcan0 008A0F39##78690913F
(066.106895) vcan0 3E7#R8
(066.307009) vcan0 0601B117#105BD638C9F5A065
(066.507078) vcan0 076EB0E6#3986
(066.707229) vcan0 4A9##53AF9B7
(066.907367) vcan0 1AB8A2E9##4DD39FF7262082B7ADD39FF7262082B7ADD39FF72
(067.107528) vcan0 01130BAC##7B4502E22339CA420B4502E22339CA420B4502E22339CA420
(067.307730) vcan0 1EC##678A260001E47731878A260001E477318
(067.507823) vcan0 0B2283A9##431343A34BA
(067.708415) vcan0 2D2##7
(067.908746) vcan0 576#R5
(068.108833) vcan0 0C2##48D3E76579F42F3098D3E7657
(068.309172) vcan0 3AD#R8
(068.509612) vcan0 0898DBD2##79902DB4D4B7EF9489902DB4D4B7EF9489902DB4D4B7EF9489902DB4D4B7EF948
(068.709700) vcan0 0EC8795C##6A0CDDE02
(068.910056) vcan0 39E##74F707C23AE0341684F707C23AE0341684F707C23AE0341684F707C23AE0341684F707C23AE0341684F707C23AE0341684F707C23AE0341684F707C23AE034168
(069.110140) vcan0 03FE94AB##62067D160
(069.311027) vcan0 3A2#6E492D31308AEB78
(069.511186) vcan0 36A#78A6C41D0275F16C
(069.711256) vcan0 0F7##78BB08F46
(069.911548) vcan0 0AF985F6##714D19F529653D86D14D19F529653D86D14D19F529653D86D
(070.111683) vcan0 0AB4B1C2#R4
(070.311799) vcan0 444##406FC3A7C64E31E2E06FC3A7C64E31E2E06FC3A7C64E31E2E
(070.511913) vcan0 3DA##513D9D10C480D39
(070.712485) vcan0 1F90313F##514E7
(070.912606) vcan0 152#89A6692CDDB95352
(071.113334) vcan0 5A8##72A0922
(071.313455) vcan0 0D37C3A3#9DA2F25F7B767E34
(071.513862) vcan0 57F#4DD1A24885B13B79
(071.714408) vcan0 4D3#2B057F7FE66D7B39
(071.914931) vcan0 662#5A636E4276
(072.115106) vcan0 10F#R8
(072.315218) vcan0 1B33DBC8#
(072.515328) vcan0 1FB43BE1#R5
(072.715441) vcan0 0CE72F0C#D011D86259008A35
(072.915588) vcan0 7F4##4E1BA2A361FED4112E1BA2A361FED4112E1BA2A361FED4112E1BA2A361FED4112
(073.115692) vcan0 0EAB3D89##439
(073.316450) vcan0 0B1B1915##5BFFF57
(073.516679) vcan0 0F996864##6CB8EC360DC102844
(073.716780) vcan0 0EF5AAC8##6F061576F44BF6965F061576F44BF6965F061576F44BF6965F061576F44BF6965
(073.917548) vcan0 10638101##638
(074.117879) vcan0 4BA##6D7830E6A9CBF
(074.318331) vcan0 6EB##56713813224
(074.518427) vcan0 05EB645F#FCF764161E64433E
(074.718999) vcan0 0683B187#R3
(074.919112) vcan0 1410C89D##71D2AE1358D2A68231D2AE1358D2A68231D2AE135
(075.119244) vcan0 558#B198F76D91148F39
(075.319318) vcan0 15D2875B#27B9056D330BE15F
(075.519625) vcan0 0546210D##50DD6B9167534C7770DD6B9167534C7770DD6B9167534C7770DD6B9167534C7770DD6B9167534C7770DD6B9167534C777
(075.719784) vcan0 416##47BFDA905
(075.920823) vcan0 055##475C9D2299747C44475C9D2299747C444
(076.120918) vcan0 1BD7A6D5#0949243D
(076.321266) vcan0 18CAF369#50E608101A8CC246
(076.521377) vcan0 171024B1##627544954D9
(076.721505) vcan0 50E#C6B014021B03
(076.921595) vcan0 022B6C08##62FCC
(077.121703) vcan0 1ACBC922#DF004D6297929E04
(077.322037) vcan0 6CD#A4F9EB18D6A75826
(077.522128) vcan0 465##7A9304C3DB61A3245A9304C3DB61A3245A9304C3DB61A3245A9304C3DB61A3245A9304C3DB61A3245A9304C3DB61A3245A9304C3DB61A3245A9304C3DB61A3245
(077.723166) vcan0 01F86B84#R7
(077.923325) vcan0 177#271CB4093D0A0621
(078.123441) vcan0 0AD74F82#0767CA16B21B
(078.323557) vcan0 24C##6A3815906
(078.523672) vcan0 06706B13##6D8B08D09B7645C3FD8B08D09
(078.723785) vcan0 1BBCBB36##70EED742ADFEB08790EED742ADFEB08790EED742ADFEB0879
(078.924741) vcan0 467##43AF3F935
(079.125386) vcan0 1652107A##7C903A417A12C0660C903A417A12C0660C903A417A12C0660
(079.325796) vcan0 39F##63029FF55
(079.525936) vcan0 0FA##5AA7C03
(079.726031) vcan0 021AF415##7
(079.926224) vcan0 012DEBE7##583F3B161
(080.126636) vcan0 1B69A756##467A36F7B909A635167A36F7B909A635167A36F7B909A6351
(080.327058) vcan0 0CB2BA77#3EE59B2040BE5664
(080.527163) vcan0 028#D053995258C16829
(080.727409) vcan0 3A6##579B1
(080.927542) vcan0 0AE0A198##79F4A9E5FB0
(081.127672) vcan0 0CCAA506##47761501589987C
(081.327753) vcan0 57A#E8ED8B69E2502E11
(081.527874) vcan0 18602A79##77A85FF42B70FFC187A85FF42
(081.728112) vcan0 0ABB5D26#R8
(081.928900) vcan0 104987FF##589333D407839464A89333D407839464A89333D407839464A
(082.129018) vcan0 078#
(082.330039) vcan0 2A4#573ECF571BC41D0A
(082.530213) vcan0 055D3EE3##58650D716CB2C
(082.730329) vcan0 2F6#R4
(082.930846) vcan0 76A#R6
(083.131489) vcan0 013#285B
(083.331601) vcan0 014##66AAF460C65
(083.531770) vcan0 62A#4A7FE0448104FA19
(083.732694) vcan0 11D18FF1#BB59F32B
(083.933524) vcan0 1CFE1C33##774C7895504EAE96B74C7895504EAE96B74C7895504EAE96B74C7895504EAE96B
(084.133610) vcan0 15CF2E70#R8
(084.333735) vcan0 7FF##4352F774627E3A06E352F774627E3A06E352F774627E3A06E352F774627E3A06E352F774627E3A06E352F774627E3A06E
(084.534238) vcan0 1D97038F##610956C5CFAB2DD4910956C5CFAB2DD4910956C5C
(084.734496) vcan0 02D89C3C#AB280F24
(084.934624) vcan0 0D0##50AC159658C6A19
(085.135135) vcan0 139A313A##75C97FD5CAEF823095C97FD5CAEF823095C97FD5CAEF823095C97FD5CAEF823095C97FD5CAEF823095C97FD5CAEF823095C97FD5CAEF823095C97FD5CAEF82309
(085.335249) vcan0 33A#33F20E62AD1CAF3C
(085.535660) vcan0 1BAC8685#C8196126BAB52342
(085.735783) vcan0 2C3#10CB312DD30F780A
(085.935895) vcan0 7B1#68E5A0555CF85673
(086.136273) vcan0 30E##50D73942E1924FD600D73942E1924FD600D73942E1924FD60
(086.336373) vcan0 6FC#R3
(086.536442) vcan0 1DAF6B3C#1F75AE
(086.736981) vcan0 188#EDAA0321
(086.938030) vcan0 194B32C2##7F95249
(087.138121) vcan0 73D##5F62951
(087.338702) vcan0 1F5AF18C##70BCF984C
(087.538788) vcan0 0C2F42C4#2081BA0D3C3D
(087.738853) vcan0 0B75CF21##782E32A0740442448
(087.939000) vcan0 1E87E9C2##5DBE9B55DB0948B1F
(088.139152) vcan0 1B44838A#R2
(088.339280) vcan0 513#
(088.539340) vcan0 0A6##51A421854B1
(088.739419) vcan0 5E7##7C4E0985007
(088.939506) vcan0 1D15DAB3#2950661E35BE4024
(089.139683) vcan0 610#3020D034EC3F671E
(089.339760) vcan0 149#1A042B1B76B0
(089.540142) vcan0 15E##6BA2FA971255C974FBA2FA971
(089.740404) vcan0 220##427EDA13F3AACB30127EDA13F3AACB30127EDA13F
(089.940536) vcan0 255#R1
(090.141061) vcan0 6A3#50C75030CD3ED569
(090.341302) vcan0 1EE0C9B8##4FB8B3B06E9E9B033FB8B3B06E9E9B033FB8B3B06E9E9B033FB8B3B06E9E9B033
(090.541911) vcan0 088FC8A3#4098
(090.742437) vcan0 23A#31792927F4617C06
(090.942548) vcan0 5C3#0BA79C7BEA
(091.143410) vcan0 14358387##7
(091.343512) vcan0 399##627164D55EA62F05E27164D55EA62F05E27164D55EA62F05E27164D55EA62F05E
(091.543638) vcan0 22A##6C78C
(091.743744) vcan0 0C836191##6BE31C024D1F91C4F
(091.944103) vcan0 14D0FD66#A0B17F299876FA5B
(092.144997) vcan0 1750A3E0##7145A841EEB4AED32145A841EEB4AED32145A841E
(092.345327) vcan0 264##586A44D
(092.545438) vcan0 4E0#0952271A07ABB540
(092.745521) vcan0 1F3#R2
(092.945654) vcan0 15EDA686##5207AFC3F44D8AD7A207AFC3F44D8AD7A207AFC3F44D8AD7A
(093.146147) vcan0 0B4295A5#R8
(093.346266) vcan0 00C8EC27##49E104D4A3C46
(093.546375) vcan0 7E4##4
(093.746463) vcan0 11109D71#E37D51747BEF374B
(093.946999) vcan0 13C##484997D263771571F84997D263771571F84997D263771571F84997D263771571F84997D263771571F84997D263771571F
(094.147291) vcan0 1EEEC4DB#75488978FB3EEB1E
(094.347426) vcan0 292##4AD
(094.547585) vcan0 0AEB11F0##50D07
(094.747688) vcan0 51F##7BE2305
(094.947819) vcan0 01ACA133#R6
(095.148414) vcan0 1B18247A#FF07
(095.349118) vcan0 00171829#478986459E60A018
(095.549268) vcan0 15797949#76
(095.750134) vcan0 088DB25D##6CD7802076AB9
(095.951072) vcan0 3EB#E7A5E215A9A76F5D
(096.151180) vcan0 4C5##74417F16EEDBCB0454417F16EEDBCB0454417F16EEDBCB045
(096.351295) vcan0 1B5FE5D5##445680446D5ED3C
(096.551451) vcan0 1645D9CF#3E22E3221663CC5B
(096.751562) vcan0 413#R8
(096.951682) vcan0 0771F5B9#3B6C0766866E
(097.151773) vcan0 1B15DFAF#DBDC
(097.351885) vcan0 135D1509##6F8E26A534E2C4E42F8E26A534E2C4E42F8E26A534E2C4E42
(097.551958) vcan0 08854AEB#B0B012
(097.752041) vcan0 015#R8
(097.952606) vcan0 09336C93#74CCE13160AEBD
(098.153233) vcan0 7C9#D7FD151704541A7E
(098.353401) vcan0 428#12058338
(098.554158) vcan0 0CD19F2D##6A7CBC17225823C20A7CBC17225823C20A7CBC17225823C20
(098.754352) vcan0 2F0##6
(098.954491) vcan0 1C0C1476#400D1B7C6D
(099.154871) vcan0 556#
(099.354953) vcan0 560#7AD96B0E
(099.555413) vcan0 41A#R8
(099.755514) vcan0 297##46EAE4A223EBEE07A6EAE4A22
(099.955613) vcan0 1CBDB0C9##78FDF623E47C5DE348FDF623E47C5DE348FDF623E47C5DE348FDF623E47C5DE348FDF623E47C5DE348FDF623E47C5DE34
(100.155723) vcan0 7D0##783409A4D116DC97183409A4D116DC97183409A4D116DC97183409A4D116DC971
(100.356495) vcan0 68C##62A7BB466FBB209
(100.557126) vcan0 01F0B08B#C5E5C443058A5C50
(100.758100) vcan0 35E##4F132C42AAA248166F132C42AAA248166F132C42AAA248166F132C42AAA248166F132C42AAA248166F132C42AAA248166F132C42AAA248166F132C42AAA248166
(100.958209) vcan0 14EA0B53##6A4F7
(101.159201) vcan0 223#AF2E6D45B3E96732
(101.359406) vcan0 37D##48F09BC
(101.559565) vcan0 5BA#FB206028E478A677
(101.759681) vcan0 52D#E4FDC631F23A3E49
(101.959815) vcan0 176#
(102.159949) vcan0 135F90DE##63D62EA468388C3513D62EA468388C3513D62EA46
(102.360052) vcan0 106B37BD#R6
(102.560167) vcan0 0AD3ABDA#R8
(102.760341) vcan0 1A267C71##678B0F248
(102.961155) vcan0 600#7855BF06E4C3530D
(103.162016) vcan0 0EC#DD5307238032137B
(103.362542) vcan0 1B519ED8##47E814D5D15013C427E814D5D15013C427E814D5D15013C427E814D5D15013C427E814D5D15013C427E814D5D15013C42
(103.563443) vcan0 0B5D92FC#88DE
(103.763595) vcan0 1E2F5AE1##729D9CF4FBE20763E29D9CF4FBE20763E29D9CF4FBE20763E29D9CF4FBE20763E29D9CF4FBE20763E29D9CF4FBE20763E29D9CF4FBE20763E29D9CF4FBE20763E
(103.963670) vcan0 16322714#
(104.163802) vcan0 1F6D4F75#R8
(104.363958) vcan0 14615AC3#CC3E864CA0AE6817
(104.564034) vcan0 08F##6B8A365000DEA4510
(104.764297) vcan0 009BEF9A#60879D4722CE9A06
(104.964396) vcan0 69F##7ED4637
(105.164530) vcan0 736##4F2E6DC5BA3DA3F50F2E6DC5BA3DA3F50F2E6DC5BA3DA3F50
(105.364624) vcan0 18F#F49BF54FC64E237A
(105.564942) vcan0 565##5E07CB90C313C8144E07CB90C
(105.765575) vcan0 53A##6
(105.965876) vcan0 430##7D70B6343907B3B35D70B6343907B3B35D70B6343907B3B35
(106.166267) vcan0 7E5##7B2E7120BD2DE9D4DB2E7120BD2DE9D4DB2E7120BD2DE9D4DB2E7120BD2DE9D4DB2E7120BD2DE9D4DB2E7120BD2DE9D4DB2E7120BD2DE9D4DB2E7120BD2DE9D4D
(106.366381) vcan0 0E533174##5D3C8645B6618304A
(106.566947) vcan0 10A8C73B##6C49A850B2F
(106.767030) vcan0 015F69CA##64432D869AA
(106.967216) vcan0 26E##587419414
(107.167648) vcan0 055##563
(107.367766) vcan0 11CDF411#0042
(107.567869) vcan0 3F7#EDE85305CAAC49
(107.768603) vcan0 012C5998#R5
(107.968901) vcan0 04D#C9372A1B921A
(108.129007) vcan0 490#
