(1723819670.123661) vcan0 155##40CDC36
(1723819670.324606) vcan0 11DE2262#R6
(1723819670.524914) vcan0 1E51162D#52A2E52D27AE754E
(1723819670.725540) vcan0 19058C66##67213F77E9EE03E047213F77E
(1723819670.926595) vcan0 108F7B27#R8
(1723819671.126704) vcan0 1384069A##56C986B166E60383E6C986B166E60383E6C986B166E60383E6C986B166E60383E6C986B166E60383E6C986B166E60383E6C986B166E60383E6C986B166E60383E
(1723819671.326811) vcan0 551#R4
(1723819671.527586) vcan0 0EC2B16D##51DE0DC06A4DBD9401DE0DC06A4DBD9401DE0DC06A4DBD9401DE0DC06A4DBD9401DE0DC06A4DBD9401DE0DC06A4DBD9401DE0DC06A4DBD9401DE0DC06A4DBD940
(1723819671.728122) vcan0 662##6C6
(1723819671.928625) vcan0 702#R8
(1723819672.129006) vcan0 13B#R8
(1723819672.329629) vcan0 299##5860A2F0B053BF439860A2F0B053BF439860A2F0B053BF439860A2F0B053BF439
(1723819672.530336) vcan0 462#R6
(1723819672.730423) vcan0 0A12E4D7##472FDAA1AF5C4EF5072FDAA1AF5C4EF5072FDAA1AF5C4EF5072FDAA1AF5C4EF5072FDAA1AF5C4EF5072FDAA1AF5C4EF5072FDAA1AF5C4EF5072FDAA1AF5C4EF50
(1723819672.930564) vcan0 32C#1588F411F32726
(1723819673.130682) vcan0 00E#26C9AC7470
(1723819673.330795) vcan0 04D03EDF#04072D36B1557A77
(1723819673.530924) vcan0 02BDA51A##76CD4397BA0AFEC2D6CD4397BA0AFEC2D
(1723819673.730992) vcan0 1BFEFB08##7A5BBB9
(1723819673.931476) vcan0 19816D58#
(1723819674.132414) vcan0 16413E19#8CB0FE232EC6
(1723819674.333014) vcan0 0CC6E498#DE7CB011BFAD7321
(1723819674.533648) vcan0 647#582A78234B3D563D
(1723819674.734070) vcan0 1C253897##7993AC118030D
(1723819674.934186) vcan0 5E8##509765B1C8D29724D09765B1C8D29724D09765B1C8D29724D
(1723819675.134457) vcan0 33F#B4A3960314
(1723819675.334578) vcan0 11AC28E9##7A56F565376D9AA35A56F565376D9AA35A56F565376D9AA35A56F565376D9AA35
(1723819675.534728) vcan0 1FB3058F##698FD9C176D82637198FD9C176D82637198FD9C176D82637198FD9C176D82637198FD9C176D82637198FD9C176D826371
(1723819675.734828) vcan0 1170D944#6B58290A9C
(1723819675.934995) vcan0 2BA#66D8F6
(1723819676.135115) vcan0 03F76A6D##54351CB1B76E052404351CB1B76E052404351CB1B
(1723819676.335488) vcan0 4B7#AD03C7226C
(1723819676.535617) vcan0 1DE7055C#F6972D4702
(1723819676.736034) vcan0 16FFA752##6DA
(1723819676.936192) vcan0 4A7##7B3B5E01A135DAA1DB3B5E01A135DAA1DB3B5E01A135DAA1DB3B5E01A135DAA1DB3B5E01A135DAA1DB3B5E01A135DAA1D
(1723819677.136305) vcan0 10C3ABB4##6FEBD04661A84BA66FEBD04661A84BA66FEBD04661A84BA66FEBD04661A84BA66
(1723819677.336399) vcan0 0E720735#5C109C5478583D
(1723819677.536578) vcan0 525##7
(1723819677.736694) vcan0 17D#R8
(1723819677.936975) vcan0 16F541BD#C2754B5397
(1723819678.137424) vcan0 159F72C0##7DEC3A32574288010DEC3A32574288010DEC3A32574288010DEC3A32574288010DEC3A32574288010DEC3A32574288010
(1723819678.337582) vcan0 1A9A45A9#1F344E1DA7039F40
(1723819678.537719) vcan0 140##4CA46B0529C112538CA46B0529C112538CA46B0529C112538CA46B0529C112538
(1723819678.738742) vcan0 1DB515C8#85
(1723819678.938806) vcan0 621#C395E80C13BDDF01
(1723819679.139653) vcan0 0F4#
(1723819679.340151) vcan0 0C4669E1##5A5B87759BF2D
(1723819679.540294) vcan0 4F7##61276F2691629826E
(1723819679.740367) vcan0 11F0CE55##7EC81343C1F15
(1723819679.940666) vcan0 542##4B4CAC472C7D54A
(1723819680.141376) vcan0 248##45BDD02090B70783B5BDD0209
(1723819680.341456) vcan0 0C7#R8
(1723819680.541541) vcan0 0D79C133#2B817965D879F166
(1723819680.741607) vcan0 316#R8
(1723819680.942197) vcan0 17420710#3BC2B278FC887613
(1723819681.142354) vcan0 62E#R8
(1723819681.342552) vcan0 2E6##5EF6FA33741D84B53EF6FA33741D84B53
(1723819681.542641) vcan0 0CE258EB#34146C4AB740F61A
(1723819681.742798) vcan0 3E9#DAAC1E17149D301D
(1723819681.942910) vcan0 172##492EA86477359D71E92EA86477359D71E
(1723819682.143181) vcan0 0E2E8277##4D0C07E
(1723819682.343949) vcan0 1C2B3D6D##7BE
(1723819682.544653) vcan0 16CD9BC4##4EDAEA303B30B
(1723819682.745444) vcan0 0353C222##51FF1C75656D6BF2D1FF1C75656D6BF2D1FF1C75656D6BF2D1FF1C75656D6BF2D1FF1C75656D6BF2D1FF1C75656D6BF2D
(1723819682.945559) vcan0 0236AF20#3FA7B97EFA5B5539
(1723819683.145710) vcan0 0E1B2301##47E4F000E930DA2557E4F000E930DA2557E4F000E930DA255
(1723819683.346321) vcan0 1173A8D1##762DFFE62A169F25E62DFFE62A169F25E62DFFE62
(1723819683.546629) vcan0 0E2##79F177614A020187F9F177614A020187F9F177614A020187F9F177614A020187F9F177614A020187F9F177614A020187F
(1723819683.746937) vcan0 13E22362##7D56BC27F
(1723819683.947049) vcan0 0A8523ED##5B5
(1723819684.147919) vcan0 15F3D20A##5065D106E4979AD34065D106E4979AD34065D106E4979AD34
(1723819684.348083) vcan0 459##59345E74AD73BB87E9345E74AD73BB87E
(1723819684.548168) vcan0 472##7E9393B5CD5A3CB1A
(1723819684.748401) vcan0 6A7##658F53B2A462663
(1723819684.949031) vcan0 12878157##5BB49587C2DED4932
(1723819685.149546) vcan0 00AF11D2##568B0A461873E590068B0A461873E5900
(1723819685.350132) vcan0 32F##553
(1723819685.550241) vcan0 279##62426C32D0C5060292426C32D0C5060292426C32D0C5060292426C32D0C5060292426C32D0C5060292426C32D0C506029
(1723819685.750397) vcan0 002##50E85EA37EB0969220E85EA37EB0969220E85EA37EB0969220E85EA37EB0969220E85EA37EB0969220E85EA37EB0969220E85EA37EB0969220E85EA37EB096922
(1723819685.950692) vcan0 358#0B25
(1723819686.150823) vcan0 262#R8
(1723819686.350935) vcan0 1AC9A477#4F48E512DF546E3C
(1723819686.551200) vcan0 676##5075D735DC958A112075D735DC958A112075D735DC958A112075D735DC958A112075D735DC958A112075D735DC958A112
(1723819686.751993) vcan0 086DE6E1##4D24C
(1723819686.952078) vcan0 0FBFED38##7CEC7A77B4672AA47
(1723819687.152571) vcan0 17A08022##486FF1D082DA5F37A86FF1D082DA5F37A86FF1D082DA5F37A86FF1D082DA5F37A86FF1D082DA5F37A86FF1D082DA5F37A86FF1D082DA5F37A86FF1D082DA5F37A
(1723819687.353022) vcan0 65E#5858C463DFC6D520
(1723819687.553812) vcan0 78E#9B61A431DDD7
(1723819687.753909) vcan0 611##54430BA
(1723819687.954500) vcan0 088#R8
(1723819688.154632) vcan0 5AE##706DC
(1723819688.354913) vcan0 2FA#R8
(1723819688.555624) vcan0 0BCC18C7##65AFAEC4E2071902F5AFAEC4E2071902F5AFAEC4E2071902F5AFAEC4E2071902F5AFAEC4E2071902F5AFAEC4E2071902F
(1723819688.755906) vcan0 19C44E06#R8
(1723819688.956272) vcan0 197BF34A##6DF1E
(1723819689.156431) vcan0 5FB##6C35A1D195AC0
(1723819689.357011) vcan0 1C1#02F41751C835363F
(1723819689.557189) vcan0 0DB#22F1
(1723819689.757679) vcan0 3ED##420BC544C478EC32120BC544C478EC321
(1723819689.958298) vcan0 3DE##6E84DD43EF2B69153E84DD43EF2B69153E84DD43EF2B69153E84DD43EF2B69153
(1723819690.158827) vcan0 673##7A0E9236B5245EB68A0E9236B5245EB68A0E9236B5245EB68
(1723819690.359771) vcan0 26A##6E1092F1B2DADB21EE1092F1B2DADB21EE1092F1B2DADB21EE1092F1B2DADB21EE1092F1B2DADB21EE1092F1B2DADB21E
(1723819690.560312) vcan0 351#B139C914549FE807
(1723819690.760644) vcan0 0E2C2D35##579351D3B581ECF5679351D3B581ECF5679351D3B581ECF5679351D3B581ECF5679351D3B581ECF5679351D3B581ECF5679351D3B581ECF5679351D3B581ECF56
(1723819690.960732) vcan0 0278F0BB#9BF70656DB
(1723819691.161059) vcan0 0B7044D5#DA1CF146BD92442A
(1723819691.361146) vcan0 0DE1A8C9##6E7
(1723819691.561756) vcan0 06D45FB2##4D1016935
(1723819691.761837) vcan0 086EC57A#F098FA09
(1723819691.961962) vcan0 5A7#R
(1723819692.162487) vcan0 7E9#R8
(1723819692.362599) vcan0 17423D8B##570D93203655A335E70D93203655A335E
(1723819692.562776) vcan0 17B5C11C##548B00B720353463948B00B720353463948B00B720353463948B00B720353463948B00B720353463948B00B7203534639
(1723819692.762888) vcan0 6CC#R5
(1723819692.962998) vcan0 46D#2D31F27A5EA5FD
(1723819693.163555) vcan0 565##4A3A1AE60CD
(1723819693.363619) vcan0 45B##501824A0559E9
(1723819693.563806) vcan0 2B8##6949D2F5F
(1723819693.764301) vcan0 4AC##678844570F4
(1723819693.964419) vcan0 210#
(1723819694.164770) vcan0 746##7751AF4657318E678751AF4657318E678
(1723819694.364937) vcan0 7B8#4DC1F1055B31ED5B
(1723819694.565402) vcan0 773##55C09BB2075C9
(1723819694.765549) vcan0 296#F42D87132BE09636
(1723819694.966423) vcan0 73E##59BBDD231B733FD
(1723819695.166568) vcan0 0D8DD5E4##68CADCF2AE2A063
(1723819695.366680) vcan0 1EA#2E838B105F6CA55E
(1723819695.566791) vcan0 176#R7
(1723819695.766903) vcan0 61B##4294BA0147797AF
(1723819695.967018) vcan0 239#D98F0D152D80B155
(1723819696.167136) vcan0 030#R8
(1723819696.367525) vcan0 1FCDE8DB##4EAB0C31267969D6AEAB0C31267969D6AEAB0C31267969D6AEAB0C31267969D6AEAB0C31267969D6AEAB0C31267969D6AEAB0C31267969D6AEAB0C31267969D6A
(1723819696.567665) vcan0 0936932E#BA
(1723819696.767778) vcan0 556#C850
(1723819696.967909) vcan0 63A##5CD3C533E63C9
(1723819697.168531) vcan0 0EC1D879#R8
(1723819697.369244) vcan0 5A3##636CB
(1723819697.569351) vcan0 659##7FD51454243DFB833FD51454243DFB833FD51454243DFB833FD51454243DFB833
(1723819697.769678) vcan0 68F#45D4
(1723819697.970138) vcan0 0F6##7A1681566BE79C35FA1681566BE79C35FA1681566BE79C35FA1681566BE79C35FA1681566BE79C35FA1681566BE79C35FA1681566BE79C35FA1681566BE79C35F
(1723819698.170258) vcan0 337##650CEE4070410600F
(1723819698.370550) vcan0 7AD#R8
(1723819698.570652) vcan0 1E5078C2##752412C0AF843DF6952412C0AF843DF69
(1723819698.770736) vcan0 08A577A0#FA
(1723819698.970908) vcan0 0861E6EF#07C47C1B34BB586A
(1723819699.171075) vcan0 122E4CD5#14641D5776B54318
(1723819699.371765) vcan0 07E#E155743FCEEE5A41
(1723819699.572620) vcan0 172B173D#2E81D25635F45517
(1723819699.772730) vcan0 18C3D1FE##44D9A612D5013F022
(1723819699.972856) vcan0 7BA#
(1723819700.173735) vcan0 08E774D7#BA2CE070
(1723819700.374385) vcan0 02F#R3
(1723819700.574544) vcan0 6EB##6D7C3
(1723819700.774651) vcan0 10D75C89#0C32A66CB7DDA927
(1723819700.974767) vcan0 1894939F##737ED6C1FED
(1723819701.174874) vcan0 1EF29E27#F54DF36E69C14C
(1723819701.374950) vcan0 283#R
(1723819701.575093) vcan0 6D9##7D2F42A2DDC674F58D2F42A2DDC674F58D2F42A2DDC674F58
(1723819701.775853) vcan0 7FC#73C0B94BD3F327
(1723819701.976529) vcan0 404#9D87D60110BE8A79
(1723819702.176962) vcan0 7DC#
(1723819702.377419) vcan0 1074A0CF#R8
(1723819702.577592) vcan0 5A1#E58A7D25A15FEF
(1723819702.777718) vcan0 203#F187BF40D5EE4029
(1723819702.978539) vcan0 3A1##51E
(1723819703.178610) vcan0 084AF0B2#0163697E4F78214A
(1723819703.378718) vcan0 0B129115#D9C7F150DF6E2918
(1723819703.578833) vcan0 09074776##77A08C54ABA34246A7A08C54ABA34246A7A08C54ABA34246A7A08C54ABA34246A7A08C54ABA34246A7A08C54ABA34246A
(1723819703.779605) vcan0 51F##4BA8FE14C04E88B63BA8FE14C04E88B63BA8FE14C
(1723819703.980007) vcan0 0810F03E#R7
(1723819704.180710) vcan0 143C9ECE#R1
(1723819704.380791) vcan0 078F0253#FEC724135565F805
(1723819704.580963) vcan0 11F73E27#197D4C150006E942
(1723819704.781489) vcan0 1614F259#F774D231D3FA
(1723819704.982038) vcan0 36A#8C4C
(1723819705.182195) vcan0 689##5FE21
(1723819705.382367) vcan0 2DB##4634F154D89E21D39634F154D89E21D39634F154D89E21D39634F154D89E21D39634F154D89E21D39634F154D89E21D39
(1723819705.582760) vcan0 748##6585E6E404627170E585E6E404627170E585E6E404627170E585E6E404627170E
(1723819705.782872) vcan0 346##49C40B0375FD848559C40B0375FD848559C40B0375FD848559C40B0375FD84855
(1723819705.982955) vcan0 00E4A5E6#E3B8E76EDD1AB772
(1723819706.183112) vcan0 314#7E1D206BA08724
(1723819706.383285) vcan0 0D945D75##6CE841422737FAA4FCE841422
(1723819706.583418) vcan0 19AFF060#F8EAD37DC33FC566
(1723819706.783577) vcan0 08D5C4B2##5B4396E340B234449B4396E340B234449B4396E34
(1723819706.984019) vcan0 3E6##4BF
(1723819707.184473) vcan0 72D#6921E7491050BC21
(1723819707.385216) vcan0 6F5##58E13EF32
(1723819707.585847) vcan0 4F9#ED102D59C7294D48
(1723819707.786006) vcan0 1920B617##6A95321790FA1F4
(1723819707.986275) vcan0 081##6F6
(1723819708.186434) vcan0 748#1D074F1207EB250A
(1723819708.386534) vcan0 10D85DCE##70895D042
(1723819708.586650) vcan0 09301A4E#695D6F05DC2D1F5C
(1723819708.786732) vcan0 084C702E##788CCF0401B81
(1723819708.986831) vcan0 1F6EADE3#R2
(1723819709.186945) vcan0 156470AF#033E5931A569DE1F
(1723819709.387065) vcan0 1A67C6CF##45FF22723EDCDB64C5FF22723EDCDB64C5FF22723EDCDB64C5FF22723EDCDB64C
(1723819709.588099) vcan0 12501CFE#2996470106B22035
(1723819709.788693) vcan0 06E##41E112D49D8
(1723819709.989118) vcan0 1B4A7BBD#07CDC73C4548
(1723819710.189691) vcan0 076CC9A5#54EECD496AE00E34
(1723819710.390523) vcan0 695##5C4A1AC399804B66CC4A1AC39
(1723819710.590670) vcan0 00702E07##7ACE3780367209863
(1723819710.790867) vcan0 07C5F7A1#10C56331CB
(1723819710.991802) vcan0 002#C1BB59692081DF72
(1723819711.192603) vcan0 03C9B5F2#17F2331CFA829160
(1723819711.393127) vcan0 0B67A939##44C3B0F468D9735754C3B0F468D9735754C3B0F468D9735754C3B0F468D9735754C3B0F468D9735754C3B0F468D9735754C3B0F468D9735754C3B0F468D973575
(1723819711.593519) vcan0 1A493302#227E
(1723819711.794093) vcan0 0ED238E1##6232E66448E1C4B12232E66448E1C4B12232E66448E1C4B12232E66448E1C4B12
(1723819711.994223) vcan0 778#9A60E64D888C9E69
(1723819712.194310) vcan0 006##634982A4CC70B494234982A4CC70B4942
(1723819712.394424) vcan0 445##6877A5A145D46D876877A5A14
(1723819712.594582) vcan0 1EBFBFAA##45291A22EF6FA
(1723819712.794740) vcan0 0AAFBE5B##445E507487E3C3010
(1723819712.994870) vcan0 000##78C0574472376B6298C0574472376B6298C0574472376B6298C0574472376B6298C0574472376B6298C0574472376B6298C0574472376B6298C0574472376B629
(1723819713.195228) vcan0 1F7228C0#1DA65E0B5A89580D
(1723819713.395357) vcan0 0E7D4817##4
(1723819713.595822) vcan0 05114457##5E1
(1723819713.796095) vcan0 394##7846A646EE77CEA03846A646E
(1723819713.996200) vcan0 1A7#78A7
(1723819714.197102) vcan0 237#20EDCC7DC3AF9416
(1723819714.397272) vcan0 70D#ACD2D9
(1723819714.597389) vcan0 4CF##73E3B
(1723819714.797504) vcan0 12382066#1E82EA38
(1723819714.998225) vcan0 050EFD0C##43DE5F23F906773733DE5F23F906773733DE5F23F
(1723819715.198342) vcan0 6BD##4056BA828350600
(1723819715.398456) vcan0 2C5#114F617AE5CF3F05
(1723819715.598619) vcan0 1749E421##7B338BC
(1723819715.798735) vcan0 181B9A91#R8
(1723819715.998972) vcan0 6ED##6EE5E33580B
(1723819716.199320) vcan0 5A2#R8
(1723819716.399494) vcan0 01A#E06E22661F0BB14D
(1723819716.599643) vcan0 0D519F04#3EC0FB5D15
(1723819716.799762) vcan0 06D##6BD0CBE0E2059
(1723819717.000390) vcan0 0DB#A1
(1723819717.201124) vcan0 1F8593BB#B6BF465FA9F2B8
(1723819717.401216) vcan0 141D7D33##44BF0777E8BED171F4BF0777E8BED171F4BF0777E
(1723819717.601291) vcan0 5F3##6C66C7C74D3
(1723819717.801791) vcan0 0A577C98#AA86F566D63C53
(1723819718.001938) vcan0 474#23D470
(1723819718.202058) vcan0 527#15AAFA3FC8393F70
(1723819718.402167) vcan0 0B467396##56FC5C7
(1723819718.602280) vcan0 7A2#
(1723819718.802394) vcan0 16D2DBA2##6
(1723819719.002555) vcan0 475#8B
(1723819719.202675) vcan0 19478878##51A5FFE62
(1723819719.402796) vcan0 57E##5D3B2
(1723819719.602921) vcan0 71A##60DC14D1989AC8F700DC14D1989AC8F70
(1723819719.803027) vcan0 00CB8139##5F716E90DB1F9FC5FF716E90DB1F9FC5FF716E90D
(1723819720.003711) vcan0 502#R4
(1723819720.203782) vcan0 17791CAD#R8
(1723819720.404265) vcan0 495#
(1723819720.604756) vcan0 040C60A2##60D42963B7513D03D0D42963B7513D03D0D42963B7513D03D0D42963B7513D03D0D42963B7513D03D0D42963B7513D03D
(1723819720.804922) vcan0 597##4EC4B4A70A4F66C3EEC4B4A70A4F66C3EEC4B4A70A4F66C3EEC4B4A70A4F66C3EEC4B4A70A4F66C3EEC4B4A70A4F66C3EEC4B4A70A4F66C3EEC4B4A70A4F66C3E
(1723819721.005803) vcan0 1F88B264#R8
(1723819721.205912) vcan0 1559075D##7E346057656B1BF78E346057656B1BF78E346057656B1BF78E346057656B1BF78E346057656B1BF78E346057656B1BF78
(1723819721.406065) vcan0 182464A0#3904F0
(1723819721.606215) vcan0 03DDF481##6EC9C19
(1723819721.806406) vcan0 00662537##4D1C896104567FC5BD1C896104567FC5BD1C896104567FC5BD1C896104567FC5BD1C896104567FC5BD1C896104567FC5BD1C896104567FC5BD1C896104567FC5B
(1723819722.006562) vcan0 193#04E343387F2D7A4C
(1723819722.206671) vcan0 036B8A1D#5F0BC1
(1723819722.406844) vcan0 1DF67CEE##79D279252D2C3FB539D279252D2C3FB539D279252D2C3FB539D279252D2C3FB539D279252D2C3FB539D279252D2C3FB53
(1723819722.606963) vcan0 6AE#176C
(1723819722.807665) vcan0 10D7DD53#C49BB4613F7AF14E
(1723819723.008692) vcan0 367##5C6C8B76038D4
(1723819723.209429) vcan0 1E63B13A##698A36F4C3E94A75698A36F4C3E94A75698A36F4C
(1723819723.409538) vcan0 0BF83719##62EC360457842B96A2EC360457842B96A2EC36045
(1723819723.609651) vcan0 1ED56C6D#R6
(1723819723.809973) vcan0 690#R8
(1723819724.010502) vcan0 37C#0925E11040B78A06
(1723819724.210588) vcan0 11BD18CF#R8
(1723819724.410741) vcan0 06B#
(1723819724.610866) vcan0 7F7##76A45934125F3FD026A45934125F3FD026A45934125F3FD02
(1723819724.810938) vcan0 127#FBD41F
(1723819725.011090) vcan0 1ECB5833#R2
(1723819725.211216) vcan0 3F6##6D49A2801FFD8963AD49A2801FFD8963A
(1723819725.411834) vcan0 1CCBED0E##643999F79BEDEC62743999F79BEDEC62743999F79BEDEC62743999F79BEDEC62743999F79BEDEC62743999F79BEDEC627
(1723819725.612617) vcan0 023#3466A16FCF7C3A35
(1723819725.812742) vcan0 17218D42#49468B0FACD2
(1723819726.013293) vcan0 3DE#7FFFA8
(1723819726.213381) vcan0 31C##5A81D0E187201C508A81D0E187201C508A81D0E187201C508
(1723819726.413974) vcan0 0C84E082##645ACEA3D577BAD0D
(1723819726.614599) vcan0 10E282E0##53680651923
(1723819726.814671) vcan0 182E539A##44C1E5650CEB9CF
(1723819727.014778) vcan0 179##5
(1723819727.214950) vcan0 196515C9#R1
(1723819727.415037) vcan0 306##686EDB23E
(1723819727.615838) vcan0 10307A71##53F
(1723819727.816610) vcan0 5A7#ED6C2D00DDCDA8
(1723819728.017331) vcan0 126DB410##60212FD645DD2C3
(1723819728.217435) vcan0 15B4DB18#5522985CF550
(1723819728.417827) vcan0 143E3C12#R8
(1723819728.617985) vcan0 3B4##56B84A97F3BC1D4716B84A97F
(1723819728.818075) vcan0 642#R8
(1723819729.018307) vcan0 14F03312##4FB0B1E0F00A01D35
(1723819729.218420) vcan0 189DD1B6#
(1723819729.418827) vcan0 10FC65C1#
(1723819729.618950) vcan0 5DD##584763D5F1835371184763D5F
(1723819729.819425) vcan0 28B#7632C715F6769E22
(1723819730.020208) vcan0 0CFCD7CE##5B40533585806394C
(1723819730.220569) vcan0 08536817#R8
(1723819730.421101) vcan0 1FE556E7##67B2DD27D64E13A13
(1723819730.622009) vcan0 3E9#51E8F9002D
(1723819730.822730) vcan0 017#R8
(1723819731.022843) vcan0 132##4EFE1D04EA8FB
(1723819731.222941) vcan0 3F6#R7
(1723819731.423571) vcan0 1BEF300E##73A13
(1723819731.624250) vcan0 4A5#9DD3054D211AF1
(1723819731.825041) vcan0 1AAFFD1D##6619DAD356EE5A95B619DAD356EE5A95B
(1723819732.025298) vcan0 07796C9D##541F0B15903
(1723819732.226181) vcan0 0429C964#47ADC30553AB
(1723819732.426618) vcan0 564##75598B85CB86280115598B85C
(1723819732.626794) vcan0 225#B622B05A5F85
(1723819732.826922) vcan0 08A##58E25014A27
(1723819733.026996) vcan0 3C9##530FA61772A
(1723819733.227093) vcan0 17D34667##439443E64A8368531
(1723819733.428014) vcan0 1A41905A##6014F801CA13D0500014F801CA13D0500014F801CA13D0500
(1723819733.628128) vcan0 08C313E0##7A902A30035
(1723819733.828789) vcan0 39D##784B81757532E7E7084B81757532E7E70
(1723819734.029242) vcan0 13B##6BF158141C98EDE2CBF158141C98EDE2CBF158141C98EDE2CBF158141C98EDE2C
(1723819734.229375) vcan0 1ED0A1E5#4AE4
(1723819734.429507) vcan0 07344AFD#R8
(1723819734.629624) vcan0 750#
(1723819734.830423) vcan0 490##43720
(1723819735.030612) vcan0 078945F5##5C25C722F7AFE
(1723819735.230731) vcan0 0595007C#07E0F76C3B
(1723819735.430820) vcan0 30C##7
(1723819735.631608) vcan0 102E24CD#B1361F
(1723819735.832141) vcan0 7D5##61A2152
(1723819736.032335) vcan0 040B7E4C#270E7C35849EEC
(1723819736.232579) vcan0 48E#A7C7A30F50A97D15
(1723819736.432688) vcan0 1476C8D0##4A84A9549D7A86E61A84A9549D7A86E61A84A9549D7A86E61
(1723819736.633359) vcan0 17F24126##527780F
(1723819736.833471) vcan0 0428CC5C#R4
(1723819737.033570) vcan0 06F88717##5FA3233
(1723819737.234529) vcan0 139BAEEF#80E99E1316BD1709
(1723819737.434621) vcan0 651##47BA9B854
(1723819737.634846) vcan0 1CCF8C6F#C15CB35F17D76446
(1723819737.834927) vcan0 4C9#8303AF4FF094EB29
(1723819738.035027) vcan0 10DE16BD#79C1CF6B4A9C381F
(1723819738.235656) vcan0 6D0##63D
(1723819738.435750) vcan0 327##410F2D134A75CC41E10F2D134
(1723819738.635928) vcan0 0014B712##7749FF4018E60CD74
(1723819738.836020) vcan0 269#B94F4C3F2AAF4866
(1723819739.036321) vcan0 759#52DC58
(1723819739.236404) vcan0 6C7#31C2246041F8240F
(1723819739.436823) vcan0 1C81268B##444
(1723819739.637567) vcan0 4D7#R
(1723819739.837727) vcan0 0EB98765##590E86B48D926AE1090E86B48D926AE10
(1723819740.038447) vcan0 180#8503
(1723819740.238532) vcan0 799#60F4
(1723819740.438646) vcan0 17C15544##7086D82
(1723819740.638754) vcan0 2EC#
(1723819740.838865) vcan0 0F99DAE2#B96C2C2177CC81
(1723819741.039469) vcan0 1BE61A51##7E98D2066E1025264E98D2066E1025264E98D2066E1025264
(1723819741.240169) vcan0 150AA471#F7
(1723819741.440909) vcan0 1FB91C64##62D66BD34C4106A052D66BD34C4106A052D66BD34C4106A052D66BD34C4106A052D66BD34C4106A052D66BD34C4106A052D66BD34C4106A052D66BD34C4106A05
(1723819741.641416) vcan0 1FEF519C##62FEE326FA5BE717F
(1723819741.842450) vcan0 108EC123#R1
(1723819742.042611) vcan0 0EAFD747#C9EE3E710044DC2F
(1723819742.242725) vcan0 1D42C6B8##45F
(1723819742.442835) vcan0 115##4942D
(1723819742.643033) vcan0 32F#
(1723819742.843875) vcan0 413#3C80B65242124928
(1723819743.044445) vcan0 5B9##72FD3AF3C37
(1723819743.244545) vcan0 1BF2E8F0##79AB46624B9D7314D9AB46624B9D7314D9AB46624B9D7314D9AB46624B9D7314D9AB46624B9D7314D9AB46624B9D7314D
(1723819743.444727) vcan0 71D##7D0
(1723819743.644936) vcan0 402##424EC
(1723819743.845068) vcan0 52C##70F4D923FC4
(1723819744.045453) vcan0 743##41B19606080E7D3
(1723819744.245708) vcan0 0A92A2B9#R8
(1723819744.445808) vcan0 60D#EE2ECD00A8B2CF75
(1723819744.645964) vcan0 36D##403D5DB7A3D
(1723819744.846068) vcan0 016##4D44524133AB4F96ED44524133AB4F96ED44524133AB4F96ED44524133AB4F96ED44524133AB4F96ED44524133AB4F96ED44524133AB4F96ED44524133AB4F96E
(1723819745.046252) vcan0 173##59B60543782D627
(1723819745.246348) vcan0 0CF3AEBD##602A1141DD8
(1723819745.446455) vcan0 0ED3751B#7F
(1723819745.646570) vcan0 0F91A8EF#R7
(1723819745.846682) vcan0 12C575E4##7145FEF03E74AA12D145FEF03E74AA12D145FEF03
(1723819746.046937) vcan0 657#C7DBEE042B942E2B
(1723819746.247053) vcan0 79D#R8
(1723819746.447142) vcan0 7CA#E6313147CC88
(1723819746.647251) vcan0 064A572B##760A9F73AAA61FF
(1723819746.847932) vcan0 1DA#2735520C2CC97E1C
(1723819747.048748) vcan0 276#R
(1723819747.248934) vcan0 030ACF4B##5F59C
(1723819747.449386) vcan0 1889642D#
(1723819747.649509) vcan0 11CD55CC#DF51F657B287
(1723819747.850387) vcan0 0AE##449DB9A7E0F3AFF7549DB9A7E0F3AFF7549DB9A7E0F3AFF7549DB9A7E0F3AFF7549DB9A7E0F3AFF7549DB9A7E0F3AFF75
(1723819748.050571) vcan0 5C9#224BD918F12A6C2C
(1723819748.250683) vcan0 0DC92D9A#25CCE23B5DEBB1
(1723819748.450762) vcan0 61C##4D43E341311F3020C
(1723819748.650894) vcan0 075182E2##66B7825688EE432296B7825688EE432296B7825688EE432296B7825688EE432296B7825688EE432296B7825688EE43229
(1723819748.851012) vcan0 354##6A018E84233A55402A018E84233A55402
(1723819749.051996) vcan0 196DF602#EBA0
(1723819749.252427) vcan0 078FE173#DA337B0396
(1723819749.452986) vcan0 0EF##5
(1723819749.653159) vcan0 660##7
(1723819749.853427) vcan0 5F1##4802D54155CDE
(1723819750.053599) vcan0 18B#
(1723819750.253805) vcan0 10C#C60C8C19F7F1346E
(1723819750.454035) vcan0 0CE77CB7#R8
(1723819750.654189) vcan0 294#
(1723819750.854723) vcan0 7BF#C4E1
(1723819751.054855) vcan0 006##5ADB5537087E559
(1723819751.254985) vcan0 1C420A51##4F415
(1723819751.455099) vcan0 1BC4ECD8#R8
(1723819751.655185) vcan0 16D6B2E5##4BEAF170273
(1723819751.855243) vcan0 7BE##566981713EF09A67C
(1723819752.056190) vcan0 6FA##66CD87F46BE78CE506CD87F46BE78CE506CD87F46BE78CE506CD87F46BE78CE506CD87F46BE78CE506CD87F46BE78CE50
(1723819752.256613) vcan0 602#8B4F0D18AF
(1723819752.457011) vcan0 3CE#5E
(1723819752.657103) vcan0 0CB1CE9B#AE61FC0107B03114
(1723819752.857586) vcan0 601#R8
(1723819753.057664) vcan0 0345CD73##76784B173D9655D766784B173D9655D766784B173D9655D766784B173D9655D766784B173D9655D766784B173D9655D76
(1723819753.257829) vcan0 08030471#1C513D
(1723819753.457996) vcan0 2C0##4
(1723819753.658080) vcan0 03BEBCA3##790ACB46701AA3E6090ACB467
(1723819753.858382) vcan0 3E2#R8
(1723819754.058467) vcan0 14D1CEAF##48F
(1723819754.258597) vcan0 158339EF#
(1723819754.458725) vcan0 1A44F63C#5DA50D3558478212
(1723819754.658864) vcan0 1BCA1AEF#859A556246C15A55
(1723819754.859658) vcan0 095C6915##47DEA8C0EA51511717DEA8C0E
(1723819755.059793) vcan0 259##686A04846CFF02A
(1723819755.259875) vcan0 076AC92A##5A9821226B9549553A9821226B9549553A9821226B9549553A9821226B9549553A9821226B9549553A9821226B9549553
(1723819755.460843) vcan0 125833FA##66B773B45C9824A07
(1723819755.660916) vcan0 045B1FF4##7C70F850351
(1723819755.861092) vcan0 76C##7
(1723819756.061220) vcan0 6DA##56F1FA7235759D9
(1723819756.261285) vcan0 759#
(1723819756.461352) vcan0 06DAC14B##7FE5BCC62F443ED0CFE5BCC62F443ED0C
(1723819756.661646) vcan0 1F4590B9##46C946047240881246C946047240881246C946047240881246C946047240881246C946047240881246C94604724088124
(1723819756.862219) vcan0 19ADE16B##5BD731F6832F1323D
(1723819757.062303) vcan0 41B##6AACD771791D6D27CAACD771791D6D27CAACD771791D6D27CAACD771791D6D27CAACD771791D6D27CAACD771791D6D27C
(1723819757.262363) vcan0 731#979DF934A08EAC45
(1723819757.462420) vcan0 644##4724A9D137868A311724A9D137868A311
(1723819757.662524) vcan0 6F2##6E46EA6
(1723819757.862594) vcan0 4A7#R8
(1723819758.062710) vcan0 0B40E05E#E503DC6E1B546073
(1723819758.262850) vcan0 14F#4F7CA20DFABE
(1723819758.463341) vcan0 13AA66DF##533A483487704A42833A483487704A42833A48348
(1723819758.664185) vcan0 127C42F5##6C592F632688D1966C592F632688D1966C592F632
(1723819758.864605) vcan0 18EA509F##4F6FCC12783BF9049F6FCC12783BF9049
(1723819759.064690) vcan0 2AE##6F38A3E295550DE31F38A3E295550DE31F38A3E29
(1723819759.265591) vcan0 6C0##7BD27CB
(1723819759.466369) vcan0 36D##7040D1100BC
(1723819759.666459) vcan0 0C756BCB##71A497222FE0FF9141A497222FE0FF9141A497222FE0FF914
(1723819759.866627) vcan0 12BD05E5##4CE558C53
(1723819760.066723) vcan0 101#R8
(1723819760.266844) vcan0 400##7F9DCAD60F396
(1723819760.466924) vcan0 0F7C1A37##6AE11BD
(1723819760.667527) vcan0 67C#R2
(1723819760.867993) vcan0 73C##7BAAB27215628EE7ABAAB27215628EE7ABAAB2721
(1723819761.068551) vcan0 6CD##63E7231409BEC9F2A3E7231409BEC9F2A3E7231409BEC9F2A
(1723819761.268651) vcan0 0DC0529A##531B0FC3150A7D52031B0FC3150A7D52031B0FC3150A7D520
(1723819761.468763) vcan0 0FF#
(1723819761.668845) vcan0 195FAD35##4
(1723819761.869583) vcan0 04E#86D7DE329C742405
(1723819762.069969) vcan0 06BE9CA5##72A086A325F48E667
(1723819762.270164) vcan0 0B262774##76BAA3946B299574B6BAA3946B299574B6BAA3946B299574B6BAA3946B299574B
(1723819762.470276) vcan0 152#65E109178321950B
(1723819762.670377) vcan0 4F9#R3
(1723819762.870501) vcan0 1556912F##6AB00EF6A25D96668
(1723819763.070618) vcan0 038B92D0##6AAAAA34F
(1723819763.270754) vcan0 389#E851A80FB3ABB470
(1723819763.470865) vcan0 0836CE17##6882E09448278702E
(1723819763.670943) vcan0 250##627594A20
(1723819763.871077) vcan0 4C3#R8
(1723819764.071565) vcan0 19F83656#4978B42A0237E744
(1723819764.271650) vcan0 02FECD94#7927
(1723819764.471783) vcan0 589#243B065C717721
(1723819764.672203) vcan0 01158A7F##6A39A7C7D07B91E25A39A7C7D
(1723819764.872318) vcan0 04AF077D##6E0A7D17AA460F9
(1723819765.072406) vcan0 0E6FB338#BB87274B1339CE47
(1723819765.273375) vcan0 19D#R8
(1723819765.474409) vcan0 01B5E3FC##63D70204F750B275C3D70204F750B275C3D70204F
(1723819765.674520) vcan0 0DFDA466#R8
(1723819765.874684) vcan0 2FC#F9ED19499FA50F2E
(1723819766.074827) vcan0 404#67D6F942E453B436
(1723819766.275093) vcan0 1A686574#295BE95630ED8F25
(1723819766.475226) vcan0 05EADC41##799AFB82E3822137A99AFB82E3822137A99AFB82E3822137A99AFB82E3822137A
(1723819766.675481) vcan0 15665604##42EE8025742
(1723819766.875683) vcan0 7E8##6A94290406953F823
(1723819767.076260) vcan0 319##43BB4A12712
(1723819767.277074) vcan0 74B#20B15975B2AD
(1723819767.477576) vcan0 0D11BEE1##617E026460A1AFB
(1723819767.677665) vcan0 13192047##524570A1EE0CFD10124570A1EE0CFD10124570A1E
(1723819767.877757) vcan0 7D7#B91EC27F
(1723819768.077988) vcan0 063##5CE56436E0C734258CE56436E0C734258CE56436E0C734258CE56436E0C734258CE56436E0C734258CE56436E0C734258
(1723819768.278118) vcan0 0ACBA100##5BC39396E3B
(1723819768.478232) vcan0 10D43DC0##54EBC4E76E0EE
(1723819768.678387) vcan0 17519549#R2
(1723819768.878519) vcan0 5B7#18BE2021DB442D
(1723819769.078699) vcan0 0519D69C##56C8B
(1723819769.278830) vcan0 792#R8
(1723819769.478935) vcan0 0CEAAFFD#EA
(1723819769.679165) vcan0 1E652E22#R8
(1723819769.879237) vcan0 35C##61CC46545BCB88F5A1CC46545
(1723819770.080117) vcan0 1CA08BE8#R3
(1723819770.280983) vcan0 048##701C0B81FB47B0E1601C0B81FB47B0E1601C0B81FB47B0E16
(1723819770.481674) vcan0 1D400CB9#AA3B450460E17C
(1723819770.681733) vcan0 46F#0931702D59CB7A4B
(1723819770.882088) vcan0 1E46F5A6##590A28344CAE6645990A28344CAE6645990A28344
(1723819771.082289) vcan0 16A9B8EA##6A463990A067D
(1723819771.282355) vcan0 141758BE##45611E0437FE3262E5611E0437FE3262E5611E0437FE3262E5611E0437FE3262E5611E0437FE3262E5611E0437FE3262E5611E0437FE3262E5611E0437FE3262E
(1723819771.347507) vcan0 06BFFCA5##78C734C19A6BC78
